EXPLAIN
TAG	GALVEIS
TITLE	LABEL	Galvanostatic EIS	Test &Identifier
DATE	LABEL	1-8-2017	Date
TIME	LABEL	15:28:31	Time
NOTES	NOTES	1	&Notes...
	0.6mg
PSTAT	PSTAT	IFC5000-01520	Potentiostat
IDCREQ	QUANT	0.00000E+000	DC &Current (A)
FREQINIT	QUANT	1.00000E+006	Initial Fre&q. (Hz)
FREQFINAL	QUANT	1.00000E-001	Final Fre&q. (Hz)
PTSPERDEC	QUANT	1.00000E+001	Points/&decade
IACREQ	QUANT	1.00000E-003	AC &Current (A rms)
AREA	QUANT	1.00000E+000	&Area (cm^2)
CONDIT	TWOPARAM	F	1.50000E+001	0.00000E+000	Conditionin&g	Time(s)	E(V)
DELAY	TWOPARAM	F	1.00000E+002	0.00000E+000	Init. De&lay	Time(s)	Stab.(mV/s)
SPEED	SELECTOR	1	&Optimize for:
ZGUESS	QUANT	2.50000E+002	E&stimated Z (ohms)
OCVCURVE	TABLE	40
	Pt	T	Vf	Vm	Ach	Over
	#	s	V vs. Ref.	V	V	bits
	0	0.25	1.15086E-002	1.15086E-002	1.11057E-002	...........
	1	0.5	1.15077E-002	1.14645E-002	1.10743E-002	...........
	2	0.75	1.15025E-002	1.14211E-002	1.10135E-002	...........
	3	1	1.14877E-002	1.13776E-002	1.09887E-002	...........
	4	1.25	1.14607E-002	1.13338E-002	1.09116E-002	...........
	5	1.5	1.14240E-002	1.12903E-002	1.08964E-002	...........
	6	1.75	1.13821E-002	1.12471E-002	1.08431E-002	...........
	7	2	1.13382E-002	1.12034E-002	1.08091E-002	...........
	8	2.25	1.12942E-002	1.11608E-002	1.07636E-002	...........
	9	2.5	1.12505E-002	1.11176E-002	1.07133E-002	...........
	10	2.75	1.12072E-002	1.10745E-002	1.06903E-002	...........
	11	3	1.11640E-002	1.10315E-002	1.06158E-002	...........
	12	3.25	1.11209E-002	1.09892E-002	1.06107E-002	...........
	13	3.5	1.10780E-002	1.09461E-002	1.05658E-002	...........
	14	3.75	1.10351E-002	1.09050E-002	1.05170E-002	...........
	15	4	1.09925E-002	1.08634E-002	1.04755E-002	...........
	16	4.25	1.09502E-002	1.08186E-002	1.04235E-002	...........
	17	4.5	1.09079E-002	1.07777E-002	1.03825E-002	...........
	18	4.75	1.08656E-002	1.07362E-002	1.03505E-002	...........
	19	5	1.08232E-002	1.06937E-002	1.02920E-002	...........
	20	5.25	1.07811E-002	1.06503E-002	1.02845E-002	...........
	21	5.5	1.07389E-002	1.06082E-002	1.02054E-002	...........
	22	5.75	1.06966E-002	1.05677E-002	1.01898E-002	...........
	23	6	1.06543E-002	1.05276E-002	1.01217E-002	...........
	24	6.25	1.06124E-002	1.04841E-002	1.00852E-002	...........
	25	6.5	1.05709E-002	1.04438E-002	1.00668E-002	...........
	26	6.75	1.05295E-002	1.04002E-002	1.00032E-002	...........
	27	7	1.04879E-002	1.03573E-002	9.96682E-003	...........
	28	7.25	1.04460E-002	1.03168E-002	9.91427E-003	...........
	29	7.5	1.04037E-002	1.02732E-002	9.88339E-003	...........
	30	7.75	1.03615E-002	1.02330E-002	9.84977E-003	...........
	31	8	1.03194E-002	1.01931E-002	9.79549E-003	...........
	32	8.25	1.02778E-002	1.01541E-002	9.77121E-003	...........
	33	8.5	1.02368E-002	1.01116E-002	9.73600E-003	...........
	34	8.75	1.01963E-002	1.00695E-002	9.68411E-003	...........
	35	9	1.01556E-002	1.00269E-002	9.64877E-003	...........
	36	9.25	1.01144E-002	9.98626E-003	9.59715E-003	...........
	37	9.5	1.00728E-002	9.94727E-003	9.56640E-003	...........
	38	9.75	1.00313E-002	9.90483E-003	9.51365E-003	...........
	39	10	9.99016E-003	9.86529E-003	9.47657E-003	...........
EOC	QUANT	0.0099902	Open Circuit (V)
PSTATMODEL	IQUANT	53	Pstat Model
PSTATSECTION	LABEL	IFC5000-01520	Pstat Section
PSTATSERIALNO	LABEL	01520	Pstat Serial Number
CTRLMODE	IQUANT	0	Control Mode
ELECTROMETER	IQUANT	0	RE=0 or CS=1
IESTAB	IQUANT	0	I/E Stability
CASPEED	IQUANT	4	Control Amp Speed
CONVENTION	IQUANT	1	Current Convention
ICHRANGE	IQUANT	2	Ich Range
ICHRANGEMODE	TOGGLE	F	Ich Auto Range
ICHOFFSETENABLE	TOGGLE	T	Ich Offset Enable
ICHOFFSET	QUANT	0	Ich Offset (V)
ICHFILTER	IQUANT	4	Ich Filter
VCHRANGE	IQUANT	2	Vch Range
VCHRANGEMODE	TOGGLE	F	Vch Auto Range
VCHOFFSETENABLE	TOGGLE	T	Vch Offset Enable
VCHOFFSET	QUANT	0	Vch Offset (V)
VCHFILTER	IQUANT	4	Vch Filter
IERANGELOWERLIMIT	IQUANT	7	I/E Range Lower Limit
IERANGEMODE	TOGGLE	F	I/E AutoRange
IERANGE	IQUANT	10	I/E Range
ACHSELECT	IQUANT	1	Ach Select
ACHRANGE	IQUANT	2	Ach Range
ACHOFFSETENABLE	TOGGLE	F	Ach Offset Enable
ACHOFFSET	QUANT	0	Ach Offset (V)
ACHFILTER	IQUANT	1	Ach Filter
CABLEID	IQUANT	14	Cable ID
DCCALDATE	LABEL	5-7-2017	DC Calibration Date
ACCALDATE	LABEL	12/3/2015	AC Calibration Date
FRAMEWORKVERSION	QUANT	7.01	Framework Version
INSTRUMENTVERSION	LABEL	4.00	Instrument Version
ZCURVE	TABLE
	Pt	Time	Freq	Zreal	Zimag	Zsig	Zmod	Zphz	Idc	Vdc	IERange
	#	s	Hz	ohm	ohm	V	ohm	°	A	V	#
	0	5	1000020	0.977999	-0.0949353	1	0.982596	-5.544384	-0.0002378	0.1506434	10
	1	7	794355.5	0.999235	-0.1169155	1	1.006051	-6.67355	2.563941E-005	0.1794412	11
	2	8	630996.1	1.018439	-0.1437022	1	1.028527	-8.031443	-0.0004239	0.1313436	10
	3	10	501269.5	1.04252	-0.1627702	1	1.05515	-8.874031	4.11697E-005	0.1821216	11
	4	12	398144.5	1.058173	-0.1902499	1	1.07514	-10.19237	-0.0005584	0.1233887	10
	5	13	316230.5	1.087077	-0.2122863	1	1.107611	-11.04976	4.316166E-005	0.1555702	11
	6	15	251191.4	1.112701	-0.2485768	1	1.140129	-12.59307	5.805586E-005	0.1569175	11
	7	16	199628.9	1.138506	-0.2836969	1	1.17332	-13.9922	5.077329E-005	0.1551218	11
	8	18	158496.1	1.162333	-0.3260727	1	1.207204	-15.67055	4.689804E-005	0.1534463	11
	9	19	125918	1.192832	-0.3742368	1	1.250161	-17.41862	4.24901E-005	0.1525041	11
	10	20	100019.5	1.223498	-0.4408631	1	1.300503	-19.81562	-1.377312E-005	0.1507652	11
	11	22	79511.72	1.25381	-0.5143256	1	1.355201	-22.30393	-1.399785E-005	0.1493723	11
	12	23	63105.47	1.292884	-0.6072853	1	1.428406	-25.16008	-1.638739E-005	0.1481542	11
	13	24	50214.84	1.336497	-0.7205076	1	1.51834	-28.32917	-9.360811E-006	0.1473238	11
	14	26	39902.34	1.387189	-0.8588698	1	1.631549	-31.76347	-1.086988E-005	0.1447482	11
	15	27	31699.22	1.449782	-1.023593	1	1.774714	-35.22334	-1.062418E-005	0.142689	11
	16	28	25136.72	1.528879	-1.230533	1	1.96257	-38.82918	-1.172159E-005	0.1405726	11
	17	30	19980.47	1.623639	-1.477013	1	2.194943	-42.29257	-1.027317E-005	0.1384907	11
	18	31	15878.91	1.743052	-1.763286	1	2.479397	-45.33064	-1.173395E-005	0.1365403	11
	19	32	12597.66	1.891697	-2.118044	1	2.839829	-48.23087	-1.148202E-005	0.1346919	11
	20	33	10019.53	2.08711	-2.522189	1	3.273754	-50.39227	-1.349702E-005	0.132718	11
	21	35	7928.241	2.327821	-3.008781	1	3.804144	-52.27175	-7.190816E-006	0.130944	11
	22	36	6307.871	2.631795	-3.563407	1	4.429923	-53.55185	-8.646412E-006	0.1293164	11
	23	37	5034.722	2.991989	-4.187892	1	5.146886	-54.45655	-6.287954E-006	0.1272205	11
	24	38	3993.056	3.442332	-4.926327	1	6.009854	-55.0556	-6.12118E-006	0.1256509	11
	25	40	3144.055	4.005193	-5.785324	1	7.036444	-55.30505	-1.995201E-006	0.1242389	10
	26	41	2519.531	4.656139	-6.72268	1	8.177656	-55.29346	-1.410266E-006	0.1234557	10
	27	42	2000.762	5.46966	-7.808003	1	9.53321	-54.988	-1.489821E-006	0.1223385	10
	28	44	1580.669	6.479918	-9.054393	1	11.13424	-54.41	-1.630348E-006	0.1212346	10
	29	45	1253.634	7.688072	-10.41305	1	12.94365	-53.56112	-1.617303E-006	0.1200711	10
	30	46	1000.702	9.104134	-11.85116	1	14.9444	-52.4683	-9.844241E-007	0.1190135	10
	31	47	790.0281	10.88219	-13.46286	1	17.31099	-51.05098	-1.063008E-006	0.1179604	10
	32	48	628.811	12.92697	-15.08178	1	19.86371	-49.3993	-1.429178E-006	0.1168962	10
	33	50	502.2321	15.28298	-16.699	1	22.63684	-47.53514	-1.590293E-006	0.1158929	10
	34	51	400.1524	18.02426	-18.2811	1	25.6724	-45.40533	-9.199111E-007	0.1148828	10
	35	52	315.5048	21.28366	-19.81506	1	29.07973	-42.95348	-1.578874E-006	0.1138486	10
	36	53	252.0161	24.70806	-21.05946	1	32.4652	-40.44201	-1.435735E-006	0.1127994	10
	37	55	200.3205	28.49294	-22.03405	1	36.0187	-37.71536	-1.184349E-006	0.1117634	10
	38	56	158.0056	32.61593	-22.65973	1	39.71476	-34.78942	-1.476493E-006	0.1108209	10
	39	57	125.558	36.72771	-22.87867	1	43.27076	-31.91988	-8.957829E-007	0.1098718	10
	40	58	99.734	40.82601	-22.67964	1	46.70256	-29.05302	-1.05816E-006	0.1087286	10
	41	59	79.44915	44.76202	-22.06118	1	49.90324	-26.23661	-1.521495E-006	0.108324	10
	42	61	62.91946	48.5258	-21.1046	1	52.91652	-23.50494	-1.463452E-006	0.1073303	10
	43	62	49.86702	52.02368	-19.92081	1	55.70729	-20.95275	-1.613109E-006	0.1063791	10
	44	63	38.42213	55.46872	-18.35091	1	58.42546	-18.30594	-9.11758E-007	0.1054046	10
	45	64	31.25	57.8923	-17.04841	1	60.35036	-16.40891	-9.632759E-007	0.1044523	10
	46	66	24.93351	60.17937	-15.60858	1	62.1706	-14.54027	6.99258E-007	0.1037381	9
	47	67	20.03205	62.11119	-14.28686	1	63.73315	-12.95389	5.950772E-007	0.102941	9
	48	68	15.625	63.97499	-12.91556	1	65.26569	-11.41371	8.108315E-007	0.1021396	9
	49	70	12.46675	65.46365	-11.82417	1	66.52293	-10.23849	6.830846E-007	0.1012973	9
	50	71	9.9734	66.71451	-10.89568	1	67.59838	-9.275542	6.912637E-007	0.1004531	9
	51	73	7.971939	67.7794	-10.12689	1	68.53175	-8.497679	6.84499E-007	0.099598	9
	52	74	6.351626	68.81348	-9.54897	1	69.47286	-7.900254	7.066865E-007	0.0986964	9
	53	76	5.013369	69.75544	-9.136705	1	70.35126	-7.462233	7.706125E-007	0.0977753	9
	54	79	3.985969	70.58598	-8.943547	1	71.15031	-7.221144	6.826305E-007	0.096797	9
	55	81	3.175813	71.35471	-8.959091	1	71.91495	-7.156444	7.044617E-007	0.0957617	9
	56	84	2.516103	72.09241	-9.095174	1	72.66386	-7.190444	5.561083E-007	0.0947093	9
	57	87	1.99553	72.73674	-9.60787	1	73.36855	-7.524693	5.597148E-007	0.0936381	9
	58	90	1.587906	73.58142	-10.41897	1	74.31541	-8.059379	5.603229E-007	0.0922259	9
	59	95	1.258052	74.38345	-11.57201	1	75.27821	-8.842758	5.51626E-007	0.090737	9
	60	100	0.997765	75.30835	-13.09332	1	76.4381	-9.86301	5.490979E-007	0.0895337	9
	61	105	0.7927448	76.25649	-15.05442	1	77.72829	-11.16762	5.48777E-007	0.0884006	9
	62	111	0.6290258	77.31524	-17.516	1	79.27457	-12.76505	5.490402E-007	0.087136	9
	63	118	0.4988825	78.52972	-20.58379	1	81.18257	-14.68765	5.442298E-007	0.0857877	9
	64	127	0.3985969	79.82533	-24.20571	1	83.41462	-16.86906	5.370798E-007	0.084212	9
	65	139	0.316723	81.35248	-28.71626	1	86.27195	-19.4423	5.425572E-007	0.0826165	9
	66	152	0.2514753	83.12624	-34.24449	1	89.90359	-22.38959	5.379212E-007	0.0809566	9
	67	169	0.1999787	85.03623	-40.94582	1	94.38072	-25.7113	5.319028E-007	0.0792547	9
	68	190	0.1587906	87.29633	-49.19781	1	100.2052	-29.40441	5.265318E-007	0.0775574	9
	69	215	0.1260081	90.29682	-59.8569	1	108.3345	-33.54002	5.235938E-007	0.1089381	9
	70	245	0.1001603	94.61095	-73.91827	1	120.0631	-38.00003	5.131184E-007	0.1888992	9
