EXPLAIN
TAG	GALVEIS
TITLE	LABEL	Galvanostatic EIS	Test &Identifier
DATE	LABEL	13-7-2017	Date
TIME	LABEL	14:18:43	Time
NOTES	NOTES	1	&Notes...
	
PSTAT	PSTAT	IFC5000-01520	Potentiostat
IDCREQ	QUANT	0.00000E+000	DC &Current (A)
FREQINIT	QUANT	1.00000E+006	Initial Fre&q. (Hz)
FREQFINAL	QUANT	1.00000E-001	Final Fre&q. (Hz)
PTSPERDEC	QUANT	1.00000E+001	Points/&decade
IACREQ	QUANT	1.00000E-003	AC &Current (A rms)
AREA	QUANT	1.00000E+000	&Area (cm^2)
CONDIT	TWOPARAM	F	1.50000E+001	0.00000E+000	Conditionin&g	Time(s)	E(V)
DELAY	TWOPARAM	F	1.00000E+002	0.00000E+000	Init. De&lay	Time(s)	Stab.(mV/s)
SPEED	SELECTOR	1	&Optimize for:
ZGUESS	QUANT	2.50000E+002	E&stimated Z (ohms)
OCVCURVE	TABLE	40
	Pt	T	Vf	Vm	Ach	Over
	#	s	V vs. Ref.	V	V	bits
	0	0.25	9.31599E-003	9.31599E-003	8.79212E-003	...........
	1	0.5	9.31589E-003	9.31069E-003	8.80299E-003	...........
	2	0.75	9.31530E-003	9.30713E-003	8.80085E-003	...........
	3	1	9.31367E-003	9.30127E-003	8.79238E-003	...........
	4	1.25	9.31076E-003	9.29757E-003	8.79185E-003	...........
	5	1.5	9.30683E-003	9.29264E-003	8.78511E-003	...........
	6	1.75	9.30239E-003	9.28944E-003	8.78145E-003	...........
	7	2	9.29788E-003	9.28383E-003	8.77438E-003	...........
	8	2.25	9.29346E-003	9.28105E-003	8.77518E-003	...........
	9	2.5	9.28915E-003	9.27574E-003	8.77231E-003	...........
	10	2.75	9.28493E-003	9.27315E-003	8.76257E-003	...........
	11	3	9.28083E-003	9.26945E-003	8.74957E-003	...........
	12	3.25	9.27694E-003	9.26648E-003	8.75697E-003	...........
	13	3.5	9.27323E-003	9.25904E-003	8.75957E-003	...........
	14	3.75	9.26941E-003	9.25526E-003	8.73496E-003	...........
	15	4	9.26513E-003	9.25029E-003	8.74263E-003	...........
	16	4.25	9.26041E-003	9.24437E-003	8.74370E-003	...........
	17	4.5	9.25549E-003	9.24253E-003	8.73303E-003	...........
	18	4.75	9.25066E-003	9.23719E-003	8.73409E-003	...........
	19	5	9.24615E-003	9.23426E-003	8.71849E-003	...........
	20	5.25	9.24202E-003	9.23132E-003	8.72582E-003	...........
	21	5.5	9.23818E-003	9.22622E-003	8.70388E-003	...........
	22	5.75	9.23448E-003	9.22190E-003	8.70382E-003	...........
	23	6	9.23067E-003	9.21761E-003	8.71069E-003	...........
	24	6.25	9.22658E-003	9.21212E-003	8.70568E-003	...........
	25	6.5	9.22217E-003	9.20639E-003	8.70122E-003	...........
	26	6.75	9.21745E-003	9.20337E-003	8.69235E-003	...........
	27	7	9.21263E-003	9.20062E-003	8.69168E-003	...........
	28	7.25	9.20813E-003	9.19850E-003	8.67867E-003	...........
	29	7.5	9.20427E-003	9.19406E-003	8.68714E-003	...........
	30	7.75	9.20093E-003	9.19028E-003	8.68301E-003	...........
	31	8	9.19768E-003	9.18520E-003	8.67661E-003	...........
	32	8.25	9.19411E-003	9.18081E-003	8.67761E-003	...........
	33	8.5	9.19008E-003	9.17599E-003	8.65560E-003	...........
	34	8.75	9.18575E-003	9.17413E-003	8.66434E-003	...........
	35	9	9.18142E-003	9.16926E-003	8.65380E-003	...........
	36	9.25	9.17735E-003	9.16503E-003	8.65780E-003	...........
	37	9.5	9.17345E-003	9.16137E-003	8.63119E-003	...........
	38	9.75	9.16951E-003	9.15589E-003	8.65593E-003	...........
	39	10	9.16543E-003	9.15308E-003	8.64933E-003	...........
EOC	QUANT	0.0091654	Open Circuit (V)
PSTATMODEL	IQUANT	53	Pstat Model
PSTATSECTION	LABEL	IFC5000-01520	Pstat Section
PSTATSERIALNO	LABEL	01520	Pstat Serial Number
CTRLMODE	IQUANT	0	Control Mode
ELECTROMETER	IQUANT	0	RE=0 or CS=1
IESTAB	IQUANT	0	I/E Stability
CASPEED	IQUANT	4	Control Amp Speed
CONVENTION	IQUANT	1	Current Convention
ICHRANGE	IQUANT	2	Ich Range
ICHRANGEMODE	TOGGLE	F	Ich Auto Range
ICHOFFSETENABLE	TOGGLE	T	Ich Offset Enable
ICHOFFSET	QUANT	0	Ich Offset (V)
ICHFILTER	IQUANT	4	Ich Filter
VCHRANGE	IQUANT	2	Vch Range
VCHRANGEMODE	TOGGLE	F	Vch Auto Range
VCHOFFSETENABLE	TOGGLE	T	Vch Offset Enable
VCHOFFSET	QUANT	0	Vch Offset (V)
VCHFILTER	IQUANT	4	Vch Filter
IERANGELOWERLIMIT	IQUANT	7	I/E Range Lower Limit
IERANGEMODE	TOGGLE	F	I/E AutoRange
IERANGE	IQUANT	10	I/E Range
ACHSELECT	IQUANT	1	Ach Select
ACHRANGE	IQUANT	2	Ach Range
ACHOFFSETENABLE	TOGGLE	F	Ach Offset Enable
ACHOFFSET	QUANT	0	Ach Offset (V)
ACHFILTER	IQUANT	1	Ach Filter
CABLEID	IQUANT	14	Cable ID
DCCALDATE	LABEL	5-7-2017	DC Calibration Date
ACCALDATE	LABEL	12/3/2015	AC Calibration Date
FRAMEWORKVERSION	QUANT	7.01	Framework Version
INSTRUMENTVERSION	LABEL	4.00	Instrument Version
ZCURVE	TABLE
	Pt	Time	Freq	Zreal	Zimag	Zsig	Zmod	Zphz	Idc	Vdc	IERange
	#	s	Hz	ohm	ohm	V	ohm	°	A	V	#
	0	8	1000020	0.687025	0.0113961	1	0.6871195	0.950316	-1.114942E-005	1.030588	9
	1	10	794355.5	0.7215012	0.0507593	1	0.7232845	4.024259	-2.944949E-005	-0.3869455	9
	2	11	630996.1	0.6620622	-0.0311205	1	0.6627932	-2.691228	-4.63993E-005	0.978368	9
	3	13	501269.5	0.7286289	-0.08916	1	0.7340638	-6.976423	-3.774467E-006	0.6354124	10
	4	15	398144.5	0.7815813	-0.1814131	1	0.8023591	-13.06755	-4.160117E-006	0.2522106	10
	5	17	316230.5	0.8022976	-0.1580538	1	0.8177179	-11.14464	-8.899093E-006	0.0049735	9
	6	19	251191.4	0.7888275	-0.1930519	1	0.812107	-13.75185	-4.229002E-005	-0.1502447	9
	7	21	199628.9	0.8270559	-0.20277	1	0.8515498	-13.77554	-3.68205E-005	-0.2664096	9
	8	23	158496.1	0.8788303	-0.1841712	1	0.8979208	-11.83585	-2.548561E-005	-0.3022613	9
	9	24	125918	0.8834692	-0.2183826	1	0.9100598	-13.88448	-4.979958E-006	-0.3232196	9
	10	26	100019.5	0.8902416	-0.2761677	1	0.9320937	-17.23476	-2.068128E-006	-0.2610382	10
	11	28	79511.72	0.966789	-0.1820467	1	0.98378	-10.66394	-1.714838E-005	-0.1886094	11
	12	29	63105.47	0.952418	-0.3117964	1	1.002156	-18.12708	-5.750469E-006	-0.3044051	9
	13	32	50214.84	0.990931	-0.3700483	1	1.057771	-20.47739	-1.719249E-006	-0.1629094	10
	14	33	39902.34	1.019968	-0.4149661	1	1.10115	-22.13857	-2.656543E-006	-0.2432171	10
	15	35	31699.22	1.040272	-0.4889103	1	1.149434	-25.17273	-1.311358E-006	-0.2216341	10
	16	37	25136.72	0.958852	-0.5869306	1	1.124226	-31.47156	-1.834644E-005	-0.237241	11
	17	38	19980.47	1.082174	-0.6136289	1	1.244042	-29.5547	-2.391922E-006	-0.3861252	10
	18	40	15878.91	1.074512	-0.959799	1	1.44076	-41.77257	-1.86196E-005	-0.3295145	11
	19	42	12597.66	1.158938	-0.8756733	1	1.452563	-37.07407	-2.500066E-006	-0.3978801	10
	20	43	10019.53	1.138674	-1.054706	1	1.55209	-42.80764	-1.799424E-005	-0.3643288	11
	21	45	7928.241	1.287126	-1.214732	1	1.769821	-43.34254	-3.813977E-006	-0.4505828	10
	22	46	6307.871	1.251409	-1.488832	1	1.944903	-49.95191	-9.166241E-006	-0.4026282	11
	23	48	5034.722	1.41228	-1.6676	1	2.185274	-49.73893	-3.148687E-006	-0.5172493	10
	24	49	3993.056	1.537674	-2.215056	1	2.696464	-55.23193	-1.900541E-006	-0.3917034	10
	25	51	3144.055	1.707562	-2.711609	1	3.204464	-57.80045	-5.404296E-006	-0.402004	11
	26	52	2519.531	1.806514	-3.018174	1	3.517508	-59.09757	-1.604492E-006	-0.4969161	10
	27	54	2000.762	2.013216	-3.780748	1	4.283351	-61.96508	-5.733921E-006	-0.4674094	11
	28	55	1580.669	2.226968	-4.21309	1	4.76545	-62.13983	-1.927287E-006	-0.5382563	10
	29	56	1253.634	2.596319	-5.484369	1	6.067881	-64.66696	-1.934876E-006	-0.4596579	10
	30	58	1000.702	3.000633	-6.806555	1	7.438615	-66.20998	-1.211037E-006	-0.4113294	10
	31	59	790.0281	3.500864	-8.331077	1	9.036752	-67.207	-1.185603E-006	-0.3841574	10
	32	60	628.811	4.058931	-10.05915	1	10.84718	-68.0256	-1.655777E-006	-0.3670685	10
	33	61	502.2321	4.700839	-12.05845	1	12.94234	-68.70229	-1.790156E-006	-0.3510985	10
	34	63	400.1524	5.417286	-14.44233	1	15.42491	-69.43904	-1.510731E-006	-0.3448049	10
	35	64	315.5048	6.267446	-17.47303	1	18.56308	-70.26747	-1.774179E-006	-0.3345475	10
	36	65	252.0161	7.139813	-20.92728	1	22.11172	-71.16177	-1.752667E-006	-0.3272864	10
	37	66	200.3205	8.111083	-25.24984	1	26.52063	-72.19126	-1.450406E-006	-0.3146541	10
	38	67	158.0056	9.236332	-30.73316	1	32.09107	-73.27274	-1.700819E-006	-0.3188789	10
	39	69	125.558	9.370124	-32.75391	1	34.06784	-74.03542	1.392754E-006	-0.1252235	9
	40	70	99.734	11.0894	-41.83931	1	43.28398	-75.15524	-1.09337E-006	-0.1404518	10
	41	71	79.44915	13.04641	-51.3618	1	52.99286	-75.74772	-1.354537E-006	-0.1446973	10
	42	72	62.91946	14.84196	-63.42015	1	65.13371	-76.82835	-1.495406E-006	-0.1531042	10
	43	74	49.86702	16.68597	-77.1167	1	78.90125	-77.79095	8.4447E-007	-0.1446299	9
	44	75	38.42213	19.30391	-93.71423	1	95.6818	-78.36062	7.806491E-007	-0.0920518	9
	45	76	31.25	22.20987	-110.5844	1	112.7927	-78.64375	9.841572E-007	-0.0499995	9
	46	77	24.93351	27.0399	-133.778	1	136.4834	-78.57304	8.724681E-007	-0.0071275	9
	47	79	20.03205	33.65156	-162.0127	1	165.4707	-78.26598	8.006303E-007	0.0318957	9
	48	80	15.625	44.74161	-201.4283	1	206.3375	-77.47668	1.038746E-006	0.07139	9
	49	82	12.46675	58.72571	-244.3274	1	251.2859	-76.48495	8.900528E-007	0.1007929	9
	50	83	9.9734	76.06299	-292.775	1	302.4943	-75.43651	8.782004E-007	0.1214385	9
	51	85	7.971939	94.39131	-350.439	1	362.9287	-74.92506	8.555709E-007	0.1142052	9
	52	87	6.351626	118.0127	-409.4477	1	426.1155	-73.92174	7.885006E-007	0.1202293	9
	53	89	5.013369	145.8466	-470.8384	1	492.9097	-72.78914	9.668166E-007	0.1301775	9
	54	92	3.985969	175.1514	-529.0519	1	557.2916	-71.68201	8.430191E-007	0.1419756	9
	55	95	3.175813	205.768	-583.6649	1	618.8741	-70.58016	7.792074E-007	0.157109	9
	56	99	2.516103	236.5836	-633.5621	1	676.2933	-69.52345	8.189706E-007	0.1757924	9
	57	103	1.99553	265.2136	-668.9189	1	719.5768	-68.37262	8.418073E-007	0.1969859	9
	58	108	1.587906	299.5595	-724.6367	1	784.1136	-67.54015	8.129082E-007	0.2106298	9
	59	114	1.258052	333.0724	-774.9407	1	843.487	-66.74178	8.058136E-007	0.2270882	9
	60	122	0.997765	365.3268	-812.6163	1	890.9595	-65.79281	7.666688E-007	0.2573732	9
	61	128	0.7927448	392.7643	-848.7864	1	935.2551	-65.1683	7.247123E-007	0.2660775	9
	62	135	0.6290258	420.0963	-887.0787	1	981.524	-64.65904	7.68396E-007	0.2642411	9
	63	144	0.4988825	449.3273	-930.8892	1	1033.658	-64.23404	7.741079E-007	0.2478879	9
	64	156	0.3985969	480.1709	-975.25	1	1087.05	-63.78637	7.680796E-007	0.2203358	9
	65	169	0.316723	511.4473	-1014.091	1	1135.764	-63.23633	7.533019E-007	0.188668	9
	66	186	0.2514753	544.4851	-1045.391	1	1178.689	-62.48755	7.428233E-007	0.1632338	9
	67	207	0.1999787	585.0488	-1066.859	1	1216.746	-61.26033	7.549396E-007	0.1427362	9
	68	233	0.1587906	634.9617	-1077.804	1	1250.935	-59.49659	7.470475E-007	0.1190585	9
	69	265	0.1260081	705.3908	-1063.53	1	1276.194	-56.4455	7.609995E-007	0.1351712	9
	70	302	0.1001603	778.6897	-1034.663	1	1294.946	-53.03479	7.782347E-007	0.1600497	9
