EXPLAIN
TAG	GALVEIS
TITLE	LABEL	Galvanostatic EIS	Test &Identifier
DATE	LABEL	11-7-2017	Date
TIME	LABEL	14:36:09	Time
NOTES	NOTES	1	&Notes...
	0.8mg
PSTAT	PSTAT	IFC5000-01520	Potentiostat
IDCREQ	QUANT	0.00000E+000	DC &Current (A)
FREQINIT	QUANT	1.00000E+006	Initial Fre&q. (Hz)
FREQFINAL	QUANT	1.00000E-001	Final Fre&q. (Hz)
PTSPERDEC	QUANT	1.00000E+001	Points/&decade
IACREQ	QUANT	1.00000E-003	AC &Current (A rms)
AREA	QUANT	1.00000E+000	&Area (cm^2)
CONDIT	TWOPARAM	F	1.50000E+001	0.00000E+000	Conditionin&g	Time(s)	E(V)
DELAY	TWOPARAM	F	1.00000E+002	0.00000E+000	Init. De&lay	Time(s)	Stab.(mV/s)
SPEED	SELECTOR	1	&Optimize for:
ZGUESS	QUANT	2.50000E+002	E&stimated Z (ohms)
OCVCURVE	TABLE	40
	Pt	T	Vf	Vm	Ach	Over
	#	s	V vs. Ref.	V	V	bits
	0	0.25	1.04260E-002	1.04260E-002	1.00438E-002	...........
	1	0.5	1.04259E-002	1.04191E-002	1.00443E-002	...........
	2	0.75	1.04252E-002	1.04169E-002	1.00486E-002	...........
	3	1	1.04233E-002	1.04123E-002	1.00333E-002	...........
	4	1.25	1.04203E-002	1.04066E-002	1.00335E-002	...........
	5	1.5	1.04165E-002	1.03995E-002	1.00246E-002	...........
	6	1.75	1.04119E-002	1.03983E-002	1.00143E-002	...........
	7	2	1.04070E-002	1.03951E-002	1.00069E-002	...........
	8	2.25	1.04024E-002	1.03914E-002	1.00192E-002	...........
	9	2.5	1.03983E-002	1.03837E-002	1.00088E-002	...........
	10	2.75	1.03945E-002	1.03816E-002	1.00102E-002	...........
	11	3	1.03903E-002	1.03767E-002	9.99830E-003	...........
	12	3.25	1.03859E-002	1.03741E-002	9.99676E-003	...........
	13	3.5	1.03816E-002	1.03705E-002	9.99003E-003	...........
	14	3.75	1.03777E-002	1.03660E-002	9.98782E-003	...........
	15	4	1.03740E-002	1.03602E-002	9.98416E-003	...........
	16	4.25	1.03701E-002	1.03554E-002	9.98149E-003	...........
	17	4.5	1.03657E-002	1.03527E-002	9.96428E-003	...........
	18	4.75	1.03611E-002	1.03477E-002	9.96989E-003	...........
	19	5	1.03567E-002	1.03424E-002	9.97122E-003	...........
	20	5.25	1.03523E-002	1.03393E-002	9.96535E-003	...........
	21	5.5	1.03479E-002	1.03364E-002	9.95928E-003	...........
	22	5.75	1.03438E-002	1.03339E-002	9.92907E-003	...........
	23	6	1.03400E-002	1.03274E-002	9.95655E-003	...........
	24	6.25	1.03364E-002	1.03236E-002	9.94974E-003	...........
	25	6.5	1.03326E-002	1.03188E-002	9.94761E-003	...........
	26	6.75	1.03284E-002	1.03170E-002	9.93607E-003	...........
	27	7	1.03242E-002	1.03118E-002	9.92587E-003	...........
	28	7.25	1.03201E-002	1.03071E-002	9.93714E-003	...........
	29	7.5	1.03161E-002	1.03032E-002	9.93067E-003	...........
	30	7.75	1.03120E-002	1.02990E-002	9.92780E-003	...........
	31	8	1.03078E-002	1.02948E-002	9.92047E-003	...........
	32	8.25	1.03035E-002	1.02906E-002	9.90780E-003	...........
	33	8.5	1.02993E-002	1.02866E-002	9.90706E-003	...........
	34	8.75	1.02951E-002	1.02827E-002	9.90953E-003	...........
	35	9	1.02910E-002	1.02773E-002	9.88919E-003	...........
	36	9.25	1.02869E-002	1.02758E-002	9.88545E-003	...........
	37	9.5	1.02827E-002	1.02694E-002	9.88072E-003	...........
	38	9.75	1.02787E-002	1.02670E-002	9.87438E-003	...........
	39	10	1.02747E-002	1.02629E-002	9.88472E-003	...........
EOC	QUANT	0.0102747	Open Circuit (V)
PSTATMODEL	IQUANT	53	Pstat Model
PSTATSECTION	LABEL	IFC5000-01520	Pstat Section
PSTATSERIALNO	LABEL	01520	Pstat Serial Number
CTRLMODE	IQUANT	0	Control Mode
ELECTROMETER	IQUANT	0	RE=0 or CS=1
IESTAB	IQUANT	0	I/E Stability
CASPEED	IQUANT	4	Control Amp Speed
CONVENTION	IQUANT	1	Current Convention
ICHRANGE	IQUANT	2	Ich Range
ICHRANGEMODE	TOGGLE	F	Ich Auto Range
ICHOFFSETENABLE	TOGGLE	T	Ich Offset Enable
ICHOFFSET	QUANT	0	Ich Offset (V)
ICHFILTER	IQUANT	4	Ich Filter
VCHRANGE	IQUANT	2	Vch Range
VCHRANGEMODE	TOGGLE	F	Vch Auto Range
VCHOFFSETENABLE	TOGGLE	T	Vch Offset Enable
VCHOFFSET	QUANT	0	Vch Offset (V)
VCHFILTER	IQUANT	4	Vch Filter
IERANGELOWERLIMIT	IQUANT	7	I/E Range Lower Limit
IERANGEMODE	TOGGLE	F	I/E AutoRange
IERANGE	IQUANT	10	I/E Range
ACHSELECT	IQUANT	1	Ach Select
ACHRANGE	IQUANT	2	Ach Range
ACHOFFSETENABLE	TOGGLE	F	Ach Offset Enable
ACHOFFSET	QUANT	0	Ach Offset (V)
ACHFILTER	IQUANT	1	Ach Filter
CABLEID	IQUANT	14	Cable ID
DCCALDATE	LABEL	5-7-2017	DC Calibration Date
ACCALDATE	LABEL	12/3/2015	AC Calibration Date
FRAMEWORKVERSION	QUANT	7.01	Framework Version
INSTRUMENTVERSION	LABEL	4.00	Instrument Version
ZCURVE	TABLE
	Pt	Time	Freq	Zreal	Zimag	Zsig	Zmod	Zphz	Idc	Vdc	IERange
	#	s	Hz	ohm	ohm	V	ohm	°	A	V	#
	0	636	1000020	0.8734067	-0.014139	1	0.8735211	-0.9274403	-1.203133E-005	0.2522181	9
	1	637	794355.5	0.8853759	-0.0393413	1	0.8862495	-2.544239	-3.1959E-005	0.1058371	9
	2	639	630996.1	0.9342214	-0.0578125	1	0.9360085	-3.541122	-5.034891E-005	-0.1583378	9
	3	641	501269.5	0.9328138	-0.100449	1	0.9382066	-6.146151	-5.210807E-005	-0.0694955	9
	4	643	398144.5	1.01145	-0.0192584	1	1.011634	-1.090804	-4.247111E-005	-0.3094991	9
	5	645	316230.5	0.964378	-0.1499858	1	0.975972	-8.840157	-4.513712E-005	-0.1724885	9
	6	647	251191.4	0.98767	-0.1433974	1	0.998025	-8.260914	-1.865212E-006	-0.0890638	11
	7	648	199628.9	1.026785	-0.2105893	1	1.048158	-11.5904	-3.73673E-005	-0.2323572	9
	8	650	158496.1	1.033864	-0.2035495	1	1.053711	-11.13807	-3.291369E-006	-0.1378949	11
	9	652	125918	1.075498	-0.2441805	1	1.102869	-12.79155	-1.52916E-005	-0.1723114	10
	10	654	100019.5	1.086045	-0.2635021	1	1.117554	-13.63788	-1.956923E-005	-0.1296859	11
	11	655	79511.72	1.179732	-0.353898	1	1.23167	-16.69829	-1.247658E-005	-0.4927238	9
	12	657	63105.47	1.211277	-0.419333	1	1.281808	-19.09538	-1.951141E-006	-0.301201	10
	13	659	50214.84	1.208701	-0.4244118	1	1.281048	-19.34773	-2.084399E-005	-0.2307788	11
	14	660	39902.34	1.289248	-0.481886	1	1.376362	-20.49439	-1.811755E-005	-0.2212808	11
	15	662	31699.22	1.331145	-0.5410109	1	1.436885	-22.11806	-1.918392E-005	-0.2125024	11
	16	663	25136.72	1.384262	-0.6098285	1	1.512638	-23.7756	-1.985514E-005	-0.2123306	11
	17	664	19980.47	1.437655	-0.6921709	1	1.595604	-25.70887	-1.970355E-005	-0.2047566	11
	18	666	15878.91	1.483448	-0.7986175	1	1.684757	-28.2959	-1.974274E-005	-0.2035372	11
	19	667	12597.66	1.551661	-0.9289833	1	1.808497	-30.90906	-1.948459E-005	-0.2078077	11
	20	668	10019.53	1.616467	-1.080186	1	1.944162	-33.75239	-2.069252E-005	-0.2026402	11
	21	670	7928.241	1.693755	-1.270296	1	2.117182	-36.86947	-1.106317E-005	-0.2021357	11
	22	671	6307.871	1.773048	-1.512365	1	2.330439	-40.46335	-1.054627E-005	-0.2063185	11
	23	672	5034.722	1.863265	-1.78883	1	2.582958	-43.83238	-8.560104E-006	-0.2032028	11
	24	674	3993.056	1.975247	-2.142229	1	2.913889	-47.32233	-8.615483E-006	-0.2024933	11
	25	675	3144.055	2.118141	-2.589905	1	3.345763	-50.72215	-7.632484E-006	-0.2024322	11
	26	676	2519.531	2.278565	-3.093926	1	3.842426	-53.62969	-7.534772E-006	-0.2026623	11
	27	677	2000.762	2.481282	-3.723999	1	4.474922	-56.32468	-7.866507E-006	-0.2022238	11
	28	679	1580.669	2.741003	-4.502006	1	5.270782	-58.66526	-8.791029E-006	-0.2011273	11
	29	680	1253.634	3.065877	-5.431492	1	6.237043	-60.55688	-8.664501E-006	-0.2020546	11
	30	681	1000.702	3.412877	-6.387939	1	7.242478	-61.8858	-1.25311E-006	-0.1823199	10
	31	682	790.0281	3.806905	-7.499146	1	8.410096	-63.08559	-1.23843E-006	-0.155032	10
	32	684	628.811	4.348489	-8.887765	1	9.89453	-63.92903	-1.747398E-006	-0.1421984	10
	33	685	502.2321	5.016932	-10.53196	1	11.66584	-64.52907	-1.812655E-006	-0.1334442	10
	34	686	400.1524	5.834536	-12.46051	1	13.75886	-64.90903	-1.494759E-006	-0.1242248	10
	35	687	315.5048	6.896099	-14.85827	1	16.38061	-65.10279	-1.800264E-006	-0.1175328	10
	36	688	252.0161	8.097842	-17.50231	1	19.28486	-65.17131	-1.721361E-006	-0.1111998	10
	37	690	200.3205	9.57082	-20.68579	1	22.7926	-65.17114	-1.486928E-006	-0.1071239	10
	38	691	158.0056	11.35541	-24.50669	1	27.00969	-65.13889	-1.737664E-006	-0.1028344	10
	39	692	125.558	13.32269	-28.85313	1	31.78046	-65.21526	-1.524424E-006	-0.0964896	10
	40	693	99.734	15.63153	-34.05026	1	37.46685	-65.34145	-1.290636E-006	-0.0934512	10
	41	695	79.44915	18.73288	-39.5249	1	43.73944	-64.64133	-1.378674E-006	-0.0690658	10
	42	696	62.91946	21.94863	-46.84717	1	51.73394	-64.89617	-1.524091E-006	-0.0632124	10
	43	697	49.86702	25.76331	-55.60994	1	61.28795	-65.14236	-1.594527E-006	-0.0569164	10
	44	698	38.42213	30.89058	-67.51397	1	74.2453	-65.41384	5.644578E-007	-0.0483185	9
	45	700	31.25	36.00346	-78.78506	1	86.62179	-65.44039	7.54939E-007	-0.0389486	9
	46	701	24.93351	43.30712	-93.19588	1	102.7666	-65.07622	6.395597E-007	-0.0288224	9
	47	702	20.03205	51.92392	-109.7311	1	121.3961	-64.67684	5.56437E-007	-0.0229885	9
	48	703	15.625	64.53701	-131.5523	1	146.53	-63.86833	7.629282E-007	-0.0183333	9
	49	705	12.46675	79.3531	-154.2139	1	173.4325	-62.77122	6.355445E-007	-0.0153181	9
	50	706	9.9734	97.8391	-178.9026	1	203.9083	-61.32643	6.346543E-007	-0.0136916	9
	51	708	7.971939	120.8546	-205.2859	1	238.2187	-59.5141	6.279389E-007	-0.0131414	9
	52	710	6.351626	149.0258	-232.5494	1	276.2027	-57.34682	5.511795E-007	-0.013173	9
	53	712	5.013369	183.261	-260.0865	1	318.1659	-54.83088	7.198145E-007	-0.0130408	9
	54	714	3.985969	220.4857	-284.9663	1	360.3051	-52.26996	6.172701E-007	-0.0122121	9
	55	716	3.175813	259.8221	-307.6542	1	402.6893	-49.81802	5.32992E-007	-0.0136286	9
	56	719	2.516103	301.8158	-325.4593	1	443.8654	-47.15859	5.030505E-007	-0.0062398	9
	57	722	1.99553	342.1806	-338.4675	1	481.2981	-44.68744	5.083434E-007	0.0002925	9
	58	726	1.587906	384.9149	-357.9099	1	525.6034	-42.91796	5.139025E-007	-0.0009497	9
	59	732	1.258052	427.5867	-373.6346	1	567.832	-41.14767	5.020605E-007	0.0065978	9
	60	739	0.997765	468.5708	-386.505	1	607.4081	-39.51784	4.899321E-007	0.0211524	9
	61	745	0.7927448	505.455	-399.8293	1	644.4752	-38.345	4.995184E-007	0.032696	9
	62	753	0.6290258	539.5651	-414.7459	1	680.5473	-37.5483	5.049456E-007	0.0450852	9
	63	762	0.4988825	570.4235	-432.4961	1	715.8463	-37.16947	5.03778E-007	0.058984	9
	64	773	0.3985969	597.0861	-453.3961	1	749.7198	-37.21114	5.131539E-007	0.0737359	9
	65	787	0.316723	621.6077	-479.0996	1	784.8137	-37.62298	5.096774E-007	0.0877057	9
	66	804	0.2514753	645.5695	-509.1786	1	822.2061	-38.26383	5.120091E-007	0.0947156	9
	67	825	0.1999787	670.4193	-542.7057	1	862.5494	-38.99023	5.068475E-007	0.0898173	9
	68	851	0.1587906	695.8315	-579.4567	1	905.5117	-39.78599	4.999164E-007	0.0758447	9
	69	882	0.1260081	725.5599	-611.1726	1	948.6671	-40.10898	4.949496E-007	0.0954583	9
	70	920	0.1001603	754.4874	-637.2805	1	987.612	-40.18623	4.92549E-007	0.1251198	9
