EXPLAIN
TAG	GALVEIS
TITLE	LABEL	Galvanostatic EIS	Test &Identifier
DATE	LABEL	7-7-2017	Date
TIME	LABEL	15:23:12	Time
NOTES	NOTES	1	&Notes...
	2.8mg
PSTAT	PSTAT	IFC5000-01520	Potentiostat
IDCREQ	QUANT	0.00000E+000	DC &Current (A)
FREQINIT	QUANT	1.00000E+006	Initial Fre&q. (Hz)
FREQFINAL	QUANT	1.00000E-001	Final Fre&q. (Hz)
PTSPERDEC	QUANT	1.00000E+001	Points/&decade
IACREQ	QUANT	1.00000E-003	AC &Current (A rms)
AREA	QUANT	1.00000E+000	&Area (cm^2)
CONDIT	TWOPARAM	F	1.50000E+001	0.00000E+000	Conditionin&g	Time(s)	E(V)
DELAY	TWOPARAM	F	1.00000E+002	0.00000E+000	Init. De&lay	Time(s)	Stab.(mV/s)
SPEED	SELECTOR	1	&Optimize for:
ZGUESS	QUANT	2.50000E+002	E&stimated Z (ohms)
OCVCURVE	TABLE	40
	Pt	T	Vf	Vm	Ach	Over
	#	s	V vs. Ref.	V	V	bits
	0	0.25	5.64449E-002	5.64449E-002	5.59312E-002	...........
	1	0.5	5.64411E-002	5.62469E-002	5.57283E-002	...........
	2	0.75	5.64179E-002	5.60599E-002	5.55629E-002	...........
	3	1	5.63522E-002	5.58783E-002	5.53717E-002	...........
	4	1.25	5.62343E-002	5.56877E-002	5.51783E-002	...........
	5	1.5	5.60757E-002	5.55054E-002	5.49998E-002	...........
	6	1.75	5.58961E-002	5.53413E-002	5.48476E-002	...........
	7	2	5.57113E-002	5.51668E-002	5.46554E-002	...........
	8	2.25	5.55296E-002	5.49896E-002	5.44827E-002	...........
	9	2.5	5.53522E-002	5.47954E-002	5.42797E-002	...........
	10	2.75	5.51753E-002	5.46140E-002	5.41159E-002	...........
	11	3	5.49958E-002	5.44320E-002	5.39419E-002	...........
	12	3.25	5.48136E-002	5.42626E-002	5.37728E-002	...........
	13	3.5	5.46315E-002	5.40839E-002	5.35858E-002	...........
	14	3.75	5.44518E-002	5.39191E-002	5.34377E-002	...........
	15	4	5.42755E-002	5.37529E-002	5.32523E-002	...........
	16	4.25	5.41026E-002	5.35811E-002	5.30897E-002	...........
	17	4.5	5.39322E-002	5.34006E-002	5.28997E-002	...........
	18	4.75	5.37619E-002	5.32251E-002	5.27340E-002	...........
	19	5	5.35899E-002	5.30601E-002	5.25737E-002	...........
	20	5.25	5.34166E-002	5.28891E-002	5.23883E-002	...........
	21	5.5	5.32438E-002	5.27223E-002	5.22428E-002	...........
	22	5.75	5.30726E-002	5.25430E-002	5.20526E-002	...........
	23	6	5.29024E-002	5.23883E-002	5.19032E-002	...........
	24	6.25	5.27331E-002	5.22382E-002	5.17521E-002	...........
	25	6.5	5.25669E-002	5.20787E-002	5.16029E-002	...........
	26	6.75	5.24055E-002	5.19356E-002	5.14554E-002	...........
	27	7	5.22490E-002	5.17929E-002	5.13096E-002	...........
	28	7.25	5.20966E-002	5.16304E-002	5.11246E-002	...........
	29	7.5	5.19463E-002	5.14656E-002	5.09948E-002	...........
	30	7.75	5.17944E-002	5.12956E-002	5.08002E-002	...........
	31	8	5.16374E-002	5.11212E-002	5.06427E-002	...........
	32	8.25	5.14744E-002	5.09429E-002	5.04749E-002	...........
	33	8.5	5.13060E-002	5.07825E-002	5.03085E-002	...........
	34	8.75	5.11351E-002	5.06265E-002	5.01521E-002	...........
	35	9	5.09656E-002	5.04758E-002	4.99455E-002	...........
	36	9.25	5.08010E-002	5.03225E-002	4.98134E-002	...........
	37	9.5	5.06420E-002	5.01674E-002	4.96520E-002	...........
	38	9.75	5.04867E-002	5.00141E-002	4.94938E-002	...........
	39	10	5.03328E-002	4.98519E-002	4.93294E-002	...........
EOC	QUANT	0.0503328	Open Circuit (V)
PSTATMODEL	IQUANT	53	Pstat Model
PSTATSECTION	LABEL	IFC5000-01520	Pstat Section
PSTATSERIALNO	LABEL	01520	Pstat Serial Number
CTRLMODE	IQUANT	0	Control Mode
ELECTROMETER	IQUANT	0	RE=0 or CS=1
IESTAB	IQUANT	0	I/E Stability
CASPEED	IQUANT	4	Control Amp Speed
CONVENTION	IQUANT	1	Current Convention
ICHRANGE	IQUANT	2	Ich Range
ICHRANGEMODE	TOGGLE	F	Ich Auto Range
ICHOFFSETENABLE	TOGGLE	T	Ich Offset Enable
ICHOFFSET	QUANT	0	Ich Offset (V)
ICHFILTER	IQUANT	4	Ich Filter
VCHRANGE	IQUANT	2	Vch Range
VCHRANGEMODE	TOGGLE	F	Vch Auto Range
VCHOFFSETENABLE	TOGGLE	T	Vch Offset Enable
VCHOFFSET	QUANT	0	Vch Offset (V)
VCHFILTER	IQUANT	4	Vch Filter
IERANGELOWERLIMIT	IQUANT	7	I/E Range Lower Limit
IERANGEMODE	TOGGLE	F	I/E AutoRange
IERANGE	IQUANT	10	I/E Range
ACHSELECT	IQUANT	1	Ach Select
ACHRANGE	IQUANT	2	Ach Range
ACHOFFSETENABLE	TOGGLE	F	Ach Offset Enable
ACHOFFSET	QUANT	0	Ach Offset (V)
ACHFILTER	IQUANT	1	Ach Filter
CABLEID	IQUANT	14	Cable ID
DCCALDATE	LABEL	5-7-2017	DC Calibration Date
ACCALDATE	LABEL	12/3/2015	AC Calibration Date
FRAMEWORKVERSION	QUANT	7.01	Framework Version
INSTRUMENTVERSION	LABEL	4.00	Instrument Version
ZCURVE	TABLE
	Pt	Time	Freq	Zreal	Zimag	Zsig	Zmod	Zphz	Idc	Vdc	IERange
	#	s	Hz	ohm	ohm	V	ohm	°	A	V	#
	0	5	1000020	1.475824	-0.1365056	1	1.482123	-5.284512	-0.0002299	0.2241389	10
	1	6	794355.5	1.548232	-0.2450137	1	1.5675	-8.992702	-0.0003498	-0.2402187	10
	2	8	630996.1	1.596377	-0.1816927	1	1.606684	-6.493213	-0.000433	-0.48682	10
	3	10	501269.5	1.595029	-0.1918957	1	1.606531	-6.860203	-0.0003034	-0.2631588	10
	4	12	398144.5	1.709505	-0.290698	1	1.734045	-9.65072	-0.0001018	-0.222686	10
	5	14	316230.5	1.754847	-0.3206441	1	1.783901	-10.3548	-1.548795E-005	-0.1254396	10
	6	16	251191.4	1.816939	-0.3669365	1	1.85362	-11.4175	4.654437E-006	-0.0965375	11
	7	17	199628.9	1.81929	-0.4006202	1	1.862878	-12.41872	-0.0005982	-0.7513894	10
	8	19	158496.1	1.861148	-0.4418316	1	1.912874	-13.35465	-3.675979E-005	-0.3310772	10
	9	21	125918	1.903761	-0.5293671	1	1.975989	-15.53933	-9.189205E-006	-0.2423672	10
	10	22	100019.5	1.940299	-0.5763003	1	2.024076	-16.54227	-1.895898E-005	-0.2355428	11
	11	24	79511.72	2.018353	-0.6420208	1	2.118003	-17.64542	-2.297209E-006	-0.3487241	10
	12	25	63105.47	2.031073	-0.784668	1	2.177375	-21.12313	-2.100775E-005	-0.2968218	11
	13	27	50214.84	2.139201	-0.8989294	1	2.3204	-22.79299	-2.362564E-006	-0.2675202	10
	14	28	39902.34	2.240446	-1.067583	1	2.4818	-25.47801	-1.996152E-005	-0.2646655	11
	15	30	31699.22	2.304695	-1.249182	1	2.621464	-28.45841	-1.855587E-005	-0.2680355	11
	16	31	25136.72	2.394548	-1.481176	1	2.815625	-31.73935	-2.024585E-005	-0.2802994	11
	17	33	19980.47	2.506564	-1.754941	1	3.05985	-34.99734	-1.976728E-005	-0.2787264	11
	18	34	15878.91	2.658258	-2.093673	1	3.383756	-38.22436	-2.080065E-005	-0.2846619	11
	19	35	12597.66	2.824157	-2.490709	1	3.765567	-41.41003	-2.056657E-005	-0.2888758	11
	20	37	10019.53	3.015516	-2.968428	1	4.231419	-44.54914	-2.017427E-005	-0.2955168	11
	21	38	7928.241	3.26533	-3.564308	1	4.833908	-47.50661	-1.000315E-005	-0.2971659	11
	22	39	6307.871	3.563514	-4.223568	1	5.526043	-49.84497	-9.361112E-006	-0.3077931	11
	23	41	5034.722	3.923566	-5.010061	1	6.363575	-51.93418	-7.865854E-006	-0.3117707	11
	24	42	3993.056	4.342496	-5.902191	1	7.32756	-53.65648	-2.758637E-006	-0.3136185	10
	25	43	3144.055	4.89042	-7.067284	1	8.594342	-55.31754	-1.75881E-006	-0.2781448	10
	26	44	2519.531	5.504569	-8.331587	1	9.98577	-56.54779	-1.585843E-006	-0.2773931	10
	27	46	2000.762	6.26649	-9.86471	1	11.68681	-57.57453	-1.734522E-006	-0.2751814	10
	28	47	1580.669	7.206363	-11.7052	1	13.74567	-58.38128	-1.932613E-006	-0.2749304	10
	29	48	1253.634	8.309887	-13.82233	1	16.12795	-58.98601	-1.915974E-006	-0.2728008	10
	30	49	1000.702	9.59544	-16.22824	1	18.85281	-59.40503	-1.223756E-006	-0.2720521	10
	31	51	790.0281	11.203	-19.16688	1	22.20082	-59.6938	-1.249187E-006	-0.2706028	10
	32	52	628.811	13.06304	-22.47298	1	25.99381	-59.83152	-1.725228E-006	-0.270277	10
	33	53	502.2321	15.22891	-26.24849	1	30.34638	-59.87845	-1.825041E-006	-0.2692439	10
	34	54	400.1524	17.82234	-30.63823	1	35.44485	-59.81332	-1.578219E-006	-0.2698846	10
	35	55	315.5048	21.04053	-35.95827	1	41.66175	-59.6665	-1.804179E-006	-0.2690563	10
	36	57	252.0161	24.63961	-41.76367	1	48.49036	-59.46037	-1.748419E-006	-0.2679975	10
	37	58	200.3205	28.95668	-48.54825	1	56.52806	-59.18597	-1.493775E-006	-0.2664765	10
	38	59	158.0056	34.22403	-56.56918	1	66.11623	-58.82631	-1.766028E-006	-0.2663455	10
	39	60	125.558	38.87308	-64.65031	1	75.43726	-58.98226	7.542219E-007	-0.2222436	9
	40	62	99.734	46.92739	-75.34322	1	88.7625	-58.08336	8.174499E-007	-0.2537878	9
	41	63	79.44915	56.13472	-86.10757	1	102.7892	-56.89912	2.623105E-007	-0.2257337	9
	42	64	62.91946	65.77174	-99.0414	1	118.8912	-56.41254	3.456698E-007	-0.22375	9
	43	65	49.86702	76.8301	-113.3226	1	136.9119	-55.86363	3.013841E-007	-0.2207031	9
	44	66	38.42213	91.0983	-131.0501	1	159.6027	-55.19524	2.154299E-007	-0.2178186	9
	45	68	31.25	103.9741	-146.393	1	179.5593	-54.61612	4.306464E-007	-0.2158084	9
	46	69	24.93351	120.3606	-164.1847	1	203.5762	-53.75557	2.996546E-007	-0.2097991	9
	47	70	20.03205	137.4629	-182.6202	1	228.5743	-53.0303	1.943794E-007	-0.2090025	9
	48	72	15.625	159.0419	-204.5058	1	259.0694	-52.12818	3.923278E-007	-0.208819	9
	49	73	12.46675	180.7937	-225.0266	1	288.6578	-51.22046	2.704521E-007	-0.209133	9
	50	75	9.9734	204.5093	-245.5072	1	319.5275	-50.20546	2.423903E-007	-0.2093554	9
	51	76	7.971939	230.7537	-265.5094	1	351.7705	-49.00616	2.599376E-007	-0.2092064	9
	52	78	6.351626	260.0616	-284.345	1	385.3364	-47.554	1.550111E-007	-0.2084626	9
	53	80	5.013369	291.1683	-301.9002	1	419.4314	-46.03668	3.507978E-007	-0.2119125	9
	54	82	3.985969	326.1132	-315.7429	1	453.92	-44.07436	2.536938E-007	-0.2062565	9
	55	86	3.175813	362.787	-325.64	1	487.4996	-41.91135	1.855342E-007	-0.1984929	9
	56	89	2.516103	402.4332	-330.4073	1	520.6932	-39.38682	2.073291E-007	-0.1855516	9
	57	92	1.99553	432.7845	-325.482	1	541.5173	-36.94554	1.887046E-007	-0.1724452	9
	58	97	1.587906	473.4845	-327.5799	1	575.7571	-34.67739	1.89655E-007	-0.1534046	9
	59	104	1.258052	512.2236	-323.565	1	605.8608	-32.28007	2.147247E-007	-0.1316002	9
	60	111	0.997765	548.2945	-316.0031	1	632.8387	-29.9565	1.853247E-007	-0.109395	9
	61	117	0.7927448	579.3303	-308.2004	1	656.2097	-28.01272	1.801731E-007	-0.0888754	9
	62	125	0.6290258	607.1846	-301.1975	1	677.7855	-26.38398	2.017524E-007	-0.0649468	9
	63	134	0.4988825	632.2539	-297.4098	1	698.7114	-25.19211	1.537856E-007	-0.0396838	9
	64	145	0.3985969	652.9847	-296.5331	1	717.1617	-24.42373	1.74758E-007	-0.0150788	9
	65	158	0.316723	670.6605	-300.2198	1	734.7907	-24.11558	1.755743E-007	0.0058637	9
	66	175	0.2514753	684.599	-308.5501	1	750.9188	-24.26118	1.821966E-007	0.0194951	9
	67	196	0.1999787	695.0049	-322.9881	1	766.3896	-24.92561	1.8529E-007	0.0248254	9
	68	222	0.1587906	704.1116	-344.917	1	784.0541	-26.09844	1.853152E-007	0.025639	9
	69	254	0.1260081	718.6028	-374.1806	1	810.1859	-27.50625	1.806564E-007	0.0827859	9
	70	291	0.1001603	729.2844	-412.7695	1	837.9942	-29.50953	1.752534E-007	0.1745134	9
