EXPLAIN
TAG	GALVEIS
TITLE	LABEL	Galvanostatic EIS	Test &Identifier
DATE	LABEL	17-7-2017	Date
TIME	LABEL	15:20:58	Time
NOTES	NOTES	1	&Notes...
	0.6mg
PSTAT	PSTAT	IFC5000-01520	Potentiostat
IDCREQ	QUANT	0.00000E+000	DC &Current (A)
FREQINIT	QUANT	1.00000E+006	Initial Fre&q. (Hz)
FREQFINAL	QUANT	1.00000E-001	Final Fre&q. (Hz)
PTSPERDEC	QUANT	1.00000E+001	Points/&decade
IACREQ	QUANT	1.00000E-003	AC &Current (A rms)
AREA	QUANT	1.00000E+000	&Area (cm^2)
CONDIT	TWOPARAM	F	1.50000E+001	0.00000E+000	Conditionin&g	Time(s)	E(V)
DELAY	TWOPARAM	F	1.00000E+002	0.00000E+000	Init. De&lay	Time(s)	Stab.(mV/s)
SPEED	SELECTOR	1	&Optimize for:
ZGUESS	QUANT	2.50000E+002	E&stimated Z (ohms)
OCVCURVE	TABLE	40
	Pt	T	Vf	Vm	Ach	Over
	#	s	V vs. Ref.	V	V	bits
	0	0.25	8.98465E-002	8.98465E-002	8.95865E-002	...........
	1	0.5	8.98464E-002	8.98404E-002	8.95823E-002	...........
	2	0.75	8.98457E-002	8.98346E-002	8.95791E-002	...........
	3	1	8.98437E-002	8.98290E-002	8.95764E-002	...........
	4	1.25	8.98401E-002	8.98254E-002	8.95705E-002	...........
	5	1.5	8.98354E-002	8.98222E-002	8.95553E-002	...........
	6	1.75	8.98306E-002	8.98164E-002	8.95596E-002	...........
	7	2	8.98261E-002	8.98138E-002	8.95429E-002	...........
	8	2.25	8.98217E-002	8.98050E-002	8.95418E-002	...........
	9	2.5	8.98172E-002	8.98044E-002	8.95371E-002	...........
	10	2.75	8.98126E-002	8.98009E-002	8.95294E-002	...........
	11	3	8.98082E-002	8.97959E-002	8.95338E-002	...........
	12	3.25	8.98042E-002	8.97919E-002	8.95344E-002	...........
	13	3.5	8.98003E-002	8.97867E-002	8.95122E-002	...........
	14	3.75	8.97961E-002	8.97776E-002	8.95197E-002	...........
	15	4	8.97913E-002	8.97747E-002	8.95185E-002	...........
	16	4.25	8.97860E-002	8.97731E-002	8.95140E-002	...........
	17	4.5	8.97807E-002	8.97657E-002	8.95102E-002	...........
	18	4.75	8.97759E-002	8.97645E-002	8.94941E-002	...........
	19	5	8.97716E-002	8.97581E-002	8.94991E-002	...........
	20	5.25	8.97676E-002	8.97558E-002	8.94855E-002	...........
	21	5.5	8.97635E-002	8.97507E-002	8.94903E-002	...........
	22	5.75	8.97594E-002	8.97471E-002	8.94682E-002	...........
	23	6	8.97554E-002	8.97436E-002	8.94865E-002	...........
	24	6.25	8.97513E-002	8.97340E-002	8.94789E-002	...........
	25	6.5	8.97469E-002	8.97311E-002	8.94846E-002	...........
	26	6.75	8.97419E-002	8.97266E-002	8.94820E-002	...........
	27	7	8.97367E-002	8.97235E-002	8.94595E-002	...........
	28	7.25	8.97319E-002	8.97210E-002	8.94600E-002	...........
	29	7.5	8.97275E-002	8.97109E-002	8.94549E-002	...........
	30	7.75	8.97234E-002	8.97134E-002	8.94505E-002	...........
	31	8	8.97193E-002	8.97086E-002	8.94455E-002	...........
	32	8.25	8.97154E-002	8.97041E-002	8.94473E-002	...........
	33	8.5	8.97117E-002	8.96953E-002	8.94405E-002	...........
	34	8.75	8.97077E-002	8.96920E-002	8.94379E-002	...........
	35	9	8.97029E-002	8.96891E-002	8.94225E-002	...........
	36	9.25	8.96978E-002	8.96814E-002	8.94305E-002	...........
	37	9.5	8.96928E-002	8.96773E-002	8.94235E-002	...........
	38	9.75	8.96878E-002	8.96750E-002	8.94183E-002	...........
	39	10	8.96831E-002	8.96707E-002	8.94036E-002	...........
EOC	QUANT	0.0896831	Open Circuit (V)
PSTATMODEL	IQUANT	53	Pstat Model
PSTATSECTION	LABEL	IFC5000-01520	Pstat Section
PSTATSERIALNO	LABEL	01520	Pstat Serial Number
CTRLMODE	IQUANT	0	Control Mode
ELECTROMETER	IQUANT	0	RE=0 or CS=1
IESTAB	IQUANT	0	I/E Stability
CASPEED	IQUANT	4	Control Amp Speed
CONVENTION	IQUANT	1	Current Convention
ICHRANGE	IQUANT	2	Ich Range
ICHRANGEMODE	TOGGLE	F	Ich Auto Range
ICHOFFSETENABLE	TOGGLE	T	Ich Offset Enable
ICHOFFSET	QUANT	0	Ich Offset (V)
ICHFILTER	IQUANT	4	Ich Filter
VCHRANGE	IQUANT	2	Vch Range
VCHRANGEMODE	TOGGLE	F	Vch Auto Range
VCHOFFSETENABLE	TOGGLE	T	Vch Offset Enable
VCHOFFSET	QUANT	0	Vch Offset (V)
VCHFILTER	IQUANT	4	Vch Filter
IERANGELOWERLIMIT	IQUANT	7	I/E Range Lower Limit
IERANGEMODE	TOGGLE	F	I/E AutoRange
IERANGE	IQUANT	10	I/E Range
ACHSELECT	IQUANT	1	Ach Select
ACHRANGE	IQUANT	2	Ach Range
ACHOFFSETENABLE	TOGGLE	F	Ach Offset Enable
ACHOFFSET	QUANT	0	Ach Offset (V)
ACHFILTER	IQUANT	1	Ach Filter
CABLEID	IQUANT	14	Cable ID
DCCALDATE	LABEL	5-7-2017	DC Calibration Date
ACCALDATE	LABEL	12/3/2015	AC Calibration Date
FRAMEWORKVERSION	QUANT	7.01	Framework Version
INSTRUMENTVERSION	LABEL	4.00	Instrument Version
ZCURVE	TABLE
	Pt	Time	Freq	Zreal	Zimag	Zsig	Zmod	Zphz	Idc	Vdc	IERange
	#	s	Hz	ohm	ohm	V	ohm	°	A	V	#
	0	5	1000020	1.053028	-0.0695652	1	1.055323	-3.779585	-0.0002328	0.2883185	10
	1	7	794355.5	1.075147	-0.0920781	1	1.079083	-4.895	-0.0003219	0.2824268	10
	2	8	630996.1	1.089518	-0.1178421	1	1.095872	-6.173104	-0.0004205	0.3675362	10
	3	10	501269.5	1.101567	-0.1426218	1	1.110762	-7.377145	4.035822E-007	0.3881641	11
	4	11	398144.5	1.114691	-0.1589272	1	1.125964	-8.114263	-0.0005867	0.3369808	10
	5	13	316230.5	1.130452	-0.2015161	1	1.148273	-10.10746	4.38242E-006	0.3633422	11
	6	15	251191.4	1.151082	-0.2442745	1	1.176716	-11.98116	1.692072E-005	0.3646139	11
	7	16	199628.9	1.166373	-0.2893752	1	1.201733	-13.93365	1.470342E-005	0.3634703	11
	8	17	158496.1	1.190016	-0.3459934	1	1.239294	-16.21162	1.471285E-005	0.3622822	11
	9	19	125918	1.211722	-0.4111347	1	1.279571	-18.74196	8.224851E-006	0.3613887	11
	10	20	100019.5	1.242177	-0.4888831	1	1.334919	-21.4831	-1.535632E-005	0.3601567	11
	11	22	79511.72	1.275738	-0.5867594	1	1.404206	-24.69946	-1.843232E-005	0.3595283	11
	12	23	63105.47	1.315251	-0.7083895	1	1.493888	-28.30674	-1.96102E-005	0.3586411	11
	13	24	50214.84	1.362688	-0.8488311	1	1.605438	-31.91917	-1.625307E-005	0.3583809	11
	14	26	39902.34	1.422553	-1.023004	1	1.752197	-35.72113	-1.775497E-005	0.3559985	11
	15	27	31699.22	1.492955	-1.234278	1	1.9371	-39.58172	-1.625359E-005	0.3534346	11
	16	28	25136.72	1.580566	-1.491519	1	2.173205	-43.33971	-1.809668E-005	0.3511109	11
	17	29	19980.47	1.6877	-1.792602	1	2.462063	-46.72646	-1.931922E-005	0.3487861	11
	18	31	15878.91	1.819449	-2.161599	1	2.825403	-49.91219	-1.975681E-005	0.3468377	11
	19	32	12597.66	1.99141	-2.608031	1	3.281393	-52.63579	-1.738419E-005	0.3450343	11
	20	33	10019.53	2.220887	-3.125395	1	3.834115	-54.60262	-1.597126E-005	0.3431052	11
	21	34	7928.241	2.507618	-3.757554	1	4.517451	-56.28269	-1.014353E-005	0.3413554	11
	22	36	6307.871	2.862182	-4.478482	1	5.314969	-57.4175	-1.004712E-005	0.3394835	11
	23	37	5034.722	3.307738	-5.309528	1	6.255575	-58.07785	-7.91048E-006	0.3377046	11
	24	38	3993.056	3.881288	-6.268776	1	7.373056	-58.23645	-2.371967E-006	0.3372142	10
	25	40	3144.055	4.661386	-7.464562	1	8.800467	-58.01651	-1.546062E-006	0.3369296	10
	26	41	2519.531	5.558683	-8.683371	1	10.31018	-57.37455	-1.52438E-006	0.3362805	10
	27	42	2000.762	6.722567	-10.08525	1	12.12044	-56.31359	-1.652685E-006	0.335629	10
	28	43	1580.669	8.194658	-11.63648	1	14.23236	-54.84598	-1.758972E-006	0.3349773	10
	29	45	1253.634	9.96587	-13.24868	1	16.57848	-53.04894	-1.75442E-006	0.3343379	10
	30	46	1000.702	12.0288	-14.85081	1	19.11121	-50.99336	-1.214303E-006	0.3337483	10
	31	47	790.0281	14.5792	-16.49779	1	22.01659	-48.53277	-1.169634E-006	0.3331674	10
	32	48	628.811	17.42264	-17.9869	1	25.0415	-45.91294	-1.596438E-006	0.3325492	10
	33	50	502.2321	20.56897	-19.26579	1	28.1825	-43.12626	-1.578219E-006	0.3319293	10
	34	51	400.1524	24.04321	-20.28196	1	31.45526	-40.14973	-1.281182E-006	0.3313813	10
	35	52	315.5048	27.91161	-20.99265	1	34.92491	-36.94726	-1.602016E-006	0.3307729	10
	36	53	252.0161	31.67407	-21.2675	1	38.15171	-33.87931	-1.532898E-006	0.3301387	10
	37	54	200.3205	35.5217	-21.15263	1	41.34278	-30.77316	-1.208806E-006	0.3295813	10
	38	56	158.0056	39.38897	-20.64701	1	44.47234	-27.66274	-1.514318E-006	0.3290931	10
	39	57	125.558	42.90445	-19.81701	1	47.25998	-24.7916	-1.297492E-006	0.3285298	10
	40	58	99.734	46.17032	-18.77186	1	49.84056	-22.1256	-1.137722E-006	0.3280346	10
	41	59	79.44915	49.05328	-17.54796	1	52.09755	-19.68379	-1.428887E-006	0.3278365	10
	42	60	62.91946	51.67501	-16.24395	1	54.16801	-17.45045	-1.505835E-006	0.3273109	10
	43	62	49.86702	53.97688	-14.94835	1	56.00854	-15.47953	-1.590618E-006	0.3267882	10
	44	63	38.42213	56.2213	-13.57551	1	57.83709	-13.57511	-1.314447E-006	0.3262873	10
	45	64	31.25	57.79361	-12.58291	1	59.14753	-12.28284	-1.190869E-006	0.3257845	10
	46	65	24.93351	59.33896	-11.59884	1	60.46193	-11.06002	-1.618437E-006	0.3253394	10
	47	67	20.03205	60.61874	-10.7471	1	61.56404	-10.0535	9.588593E-007	0.3251249	9
	48	68	15.625	62.00076	-9.94252	1	62.7929	-9.110456	1.150746E-006	0.3249422	9
	49	70	12.46675	63.10217	-9.318852	1	63.78655	-8.400654	1.052195E-006	0.3247831	9
	50	71	9.9734	64.08426	-8.817918	1	64.68808	-7.834633	1.041688E-006	0.3246487	9
	51	73	7.971939	65.02592	-8.435081	1	65.57074	-7.391065	1.041529E-006	0.3245477	9
	52	74	6.351626	65.9044	-8.177373	1	66.40978	-7.073071	9.594921E-007	0.3244963	9
	53	76	5.013369	66.74753	-8.062067	1	67.23265	-6.88708	1.123423E-006	0.3245357	9
	54	79	3.985969	67.46223	-8.118377	1	67.94896	-6.861953	1.044163E-006	0.32465	9
	55	81	3.175813	68.17178	-8.373178	1	68.68407	-7.002265	9.620043E-007	0.3248432	9
	56	84	2.516103	68.77032	-8.800773	1	69.33117	-7.292697	9.314596E-007	0.3252223	9
	57	87	1.99553	69.34799	-9.56474	1	70.00449	-7.852911	9.331522E-007	0.3259517	9
	58	90	1.587906	69.99618	-10.64284	1	70.80067	-8.645543	9.33371E-007	0.3264946	9
	59	95	1.258052	70.61527	-12.1253	1	71.64873	-9.7432	9.294682E-007	0.3273474	9
	60	100	0.997765	71.1824	-14.0643	1	72.55853	-11.17661	9.330782E-007	0.3287262	9
	61	105	0.7927448	71.79014	-16.55362	1	73.67392	-12.98451	9.356592E-007	0.3305486	9
	62	111	0.6290258	72.44177	-19.74697	1	75.08498	-15.24785	9.297329E-007	0.3328525	9
	63	118	0.4988825	73.05374	-23.82171	1	76.83959	-18.06036	9.333482E-007	0.3357064	9
	64	128	0.3985969	73.73132	-28.80138	1	79.15698	-21.33692	9.323913E-007	0.3389167	9
	65	139	0.316723	74.48933	-35.21305	1	82.39308	-25.30132	9.352942E-007	0.342902	9
	66	152	0.2514753	75.35765	-43.31596	1	86.91978	-29.89051	9.321383E-007	0.3474458	9
	67	169	0.1999787	76.36737	-53.41529	1	93.19425	-34.97093	9.337401E-007	0.3522469	9
	68	191	0.1587906	77.62489	-66.1226	1	101.9697	-40.42509	9.303099E-007	0.3571004	9
	69	216	0.1260081	79.29298	-81.52119	1	113.7237	-45.79383	9.299006E-007	0.4070672	9
	70	246	0.1001603	80.73032	-100.8648	1	129.194	-51.32685	9.247223E-007	0.4865651	9
