EXPLAIN
TAG	GALVEIS
TITLE	LABEL	Galvanostatic EIS	Test &Identifier
DATE	LABEL	12-7-2017	Date
TIME	LABEL	14:00:32	Time
NOTES	NOTES	1	&Notes...
	0.4mg
PSTAT	PSTAT	IFC5000-01520	Potentiostat
IDCREQ	QUANT	0.00000E+000	DC &Current (A)
FREQINIT	QUANT	1.00000E+006	Initial Fre&q. (Hz)
FREQFINAL	QUANT	1.00000E-001	Final Fre&q. (Hz)
PTSPERDEC	QUANT	1.00000E+001	Points/&decade
IACREQ	QUANT	1.00000E-003	AC &Current (A rms)
AREA	QUANT	1.00000E+000	&Area (cm^2)
CONDIT	TWOPARAM	F	1.50000E+001	0.00000E+000	Conditionin&g	Time(s)	E(V)
DELAY	TWOPARAM	F	1.00000E+002	0.00000E+000	Init. De&lay	Time(s)	Stab.(mV/s)
SPEED	SELECTOR	1	&Optimize for:
ZGUESS	QUANT	2.50000E+002	E&stimated Z (ohms)
OCVCURVE	TABLE	40
	Pt	T	Vf	Vm	Ach	Over
	#	s	V vs. Ref.	V	V	bits
	0	0.25	1.06752E-001	1.06752E-001	1.06465E-001	...........
	1	0.5	1.06747E-001	1.06511E-001	1.06220E-001	...........
	2	0.75	1.06719E-001	1.06271E-001	1.05986E-001	...........
	3	1	1.06637E-001	1.06031E-001	1.05738E-001	...........
	4	1.25	1.06489E-001	1.05791E-001	1.05505E-001	...........
	5	1.5	1.06287E-001	1.05549E-001	1.05260E-001	...........
	6	1.75	1.06056E-001	1.05311E-001	1.05031E-001	...........
	7	2	1.05814E-001	1.05074E-001	1.04786E-001	...........
	8	2.25	1.05572E-001	1.04838E-001	1.04555E-001	...........
	9	2.5	1.05331E-001	1.04596E-001	1.04315E-001	...........
	10	2.75	1.05092E-001	1.04363E-001	1.04076E-001	...........
	11	3	1.04855E-001	1.04129E-001	1.03838E-001	...........
	12	3.25	1.04618E-001	1.03891E-001	1.03602E-001	...........
	13	3.5	1.04382E-001	1.03656E-001	1.03385E-001	...........
	14	3.75	1.04146E-001	1.03424E-001	1.03126E-001	...........
	15	4	1.03911E-001	1.03186E-001	1.02913E-001	...........
	16	4.25	1.03676E-001	1.02952E-001	1.02682E-001	...........
	17	4.5	1.03441E-001	1.02723E-001	1.02463E-001	...........
	18	4.75	1.03206E-001	1.02492E-001	1.02219E-001	...........
	19	5	1.02973E-001	1.02260E-001	1.01994E-001	...........
	20	5.25	1.02741E-001	1.02031E-001	1.01763E-001	...........
	21	5.5	1.02510E-001	1.01800E-001	1.01541E-001	...........
	22	5.75	1.02279E-001	1.01569E-001	1.01292E-001	...........
	23	6	1.02048E-001	1.01345E-001	1.01045E-001	...........
	24	6.25	1.01818E-001	1.01115E-001	1.00819E-001	...........
	25	6.5	1.01589E-001	1.00882E-001	1.00606E-001	...........
	26	6.75	1.01360E-001	1.00656E-001	1.00367E-001	...........
	27	7	1.01131E-001	1.00431E-001	1.00133E-001	...........
	28	7.25	1.00903E-001	1.00205E-001	9.98845E-002	...........
	29	7.5	1.00675E-001	9.99824E-002	9.96464E-002	...........
	30	7.75	1.00449E-001	9.97571E-002	9.94204E-002	...........
	31	8	1.00224E-001	9.95333E-002	9.91999E-002	...........
	32	8.25	9.99990E-002	9.93072E-002	9.89636E-002	...........
	33	8.5	9.97746E-002	9.90844E-002	9.87541E-002	...........
	34	8.75	9.95503E-002	9.88661E-002	9.85364E-002	...........
	35	9	9.93265E-002	9.86422E-002	9.83152E-002	...........
	36	9.25	9.91036E-002	9.84176E-002	9.80765E-002	...........
	37	9.5	9.88812E-002	9.81959E-002	9.78656E-002	...........
	38	9.75	9.86587E-002	9.79763E-002	9.76517E-002	...........
	39	10	9.84364E-002	9.77618E-002	9.74151E-002	...........
EOC	QUANT	0.0984364	Open Circuit (V)
PSTATMODEL	IQUANT	53	Pstat Model
PSTATSECTION	LABEL	IFC5000-01520	Pstat Section
PSTATSERIALNO	LABEL	01520	Pstat Serial Number
CTRLMODE	IQUANT	0	Control Mode
ELECTROMETER	IQUANT	0	RE=0 or CS=1
IESTAB	IQUANT	0	I/E Stability
CASPEED	IQUANT	4	Control Amp Speed
CONVENTION	IQUANT	1	Current Convention
ICHRANGE	IQUANT	2	Ich Range
ICHRANGEMODE	TOGGLE	F	Ich Auto Range
ICHOFFSETENABLE	TOGGLE	T	Ich Offset Enable
ICHOFFSET	QUANT	0	Ich Offset (V)
ICHFILTER	IQUANT	4	Ich Filter
VCHRANGE	IQUANT	2	Vch Range
VCHRANGEMODE	TOGGLE	F	Vch Auto Range
VCHOFFSETENABLE	TOGGLE	T	Vch Offset Enable
VCHOFFSET	QUANT	0	Vch Offset (V)
VCHFILTER	IQUANT	4	Vch Filter
IERANGELOWERLIMIT	IQUANT	7	I/E Range Lower Limit
IERANGEMODE	TOGGLE	F	I/E AutoRange
IERANGE	IQUANT	10	I/E Range
ACHSELECT	IQUANT	1	Ach Select
ACHRANGE	IQUANT	2	Ach Range
ACHOFFSETENABLE	TOGGLE	F	Ach Offset Enable
ACHOFFSET	QUANT	0	Ach Offset (V)
ACHFILTER	IQUANT	1	Ach Filter
CABLEID	IQUANT	14	Cable ID
DCCALDATE	LABEL	5-7-2017	DC Calibration Date
ACCALDATE	LABEL	12/3/2015	AC Calibration Date
FRAMEWORKVERSION	QUANT	7.01	Framework Version
INSTRUMENTVERSION	LABEL	4.00	Instrument Version
ZCURVE	TABLE
	Pt	Time	Freq	Zreal	Zimag	Zsig	Zmod	Zphz	Idc	Vdc	IERange
	#	s	Hz	ohm	ohm	V	ohm	°	A	V	#
	0	5	1000020	0.8446457	-0.0829608	1	0.8487101	-5.60958	-0.0001988	0.7519336	10
	1	7	794355.5	0.8354498	-0.1241641	1	0.844626	-8.453395	-9.219134E-006	0.8768856	9
	2	8	630996.1	0.977895	-0.1460359	1	0.988739	-8.493609	4.761725E-005	0.8259758	11
	3	10	501269.5	0.8856425	-0.1363306	1	0.896074	-8.751089	-2.464389E-005	0.5744866	9
	4	12	398144.5	0.979843	-0.1449946	1	0.990513	-8.417392	5.261687E-005	0.5943525	11
	5	13	316230.5	0.9116812	-0.209311	1	0.9354003	-12.93034	-3.087075E-005	0.368058	9
	6	15	251191.4	0.9134762	-0.2449414	1	0.9457457	-15.01031	5.160259E-005	0.4013861	11
	7	16	199628.9	0.954893	-0.2867995	1	0.997033	-16.7175	2.247773E-005	0.2547687	10
	8	18	158496.1	0.976947	-0.3488477	1	1.037362	-19.65061	5.031505E-005	0.2633422	11
	9	20	125918	1.005536	-0.3974455	1	1.081233	-21.56677	2.065E-005	0.1668753	10
	10	21	100019.5	1.019528	-0.4849374	1	1.128983	-25.43804	-1.444584E-005	0.1772748	11
	11	23	79511.72	1.064	-0.5886	1	1.215955	-28.95117	5.32784E-006	0.1228841	10
	12	24	63105.47	1.083918	-0.723325	1	1.303103	-33.71614	-1.311591E-005	0.1266068	11
	13	26	50214.84	1.144951	-0.8758769	1	1.441553	-37.41565	-1.057021E-005	0.1128207	11
	14	27	39902.34	1.191283	-1.058677	1	1.593723	-41.62707	-1.392581E-005	0.1009947	11
	15	29	31699.22	1.2474	-1.274991	1	1.783706	-45.62671	-9.674521E-006	0.0895598	11
	16	30	25136.72	1.317599	-1.547808	1	2.032677	-49.59333	-1.300493E-005	0.0757625	11
	17	31	19980.47	1.399965	-1.896449	1	2.357206	-53.56514	-1.254481E-005	0.0625793	11
	18	32	15878.91	1.507501	-2.3101	1	2.758463	-56.87275	-1.083452E-005	0.0501684	11
	19	34	12597.66	1.629274	-2.81982	1	3.256673	-59.98095	-1.078811E-005	0.0392809	11
	20	35	10019.53	1.799858	-3.418199	1	3.863104	-62.23088	-1.292719E-005	0.0277897	11
	21	36	7928.241	1.989233	-4.172526	1	4.622447	-64.51074	-1.072313E-005	0.0174911	11
	22	37	6307.871	2.235077	-5.08663	1	5.556022	-66.27921	-1.163316E-005	0.007872	11
	23	39	5034.722	2.542025	-6.15219	1	6.656676	-67.55006	-8.794445E-006	-0.0033703	11
	24	40	3993.056	2.926725	-7.488021	1	8.039663	-68.65174	-2.030893E-006	-0.0010458	10
	25	41	3144.055	3.447385	-9.252075	1	9.87347	-69.56427	-1.532526E-006	0.0040296	10
	26	43	2519.531	4.059349	-11.18561	1	11.89942	-70.05376	-1.721152E-006	0.0053059	10
	27	44	2000.762	4.864687	-13.60833	1	14.4517	-70.32911	-1.54036E-006	0.0064172	10
	28	45	1580.669	5.930363	-16.58571	1	17.61406	-70.32506	-1.861681E-006	0.006993	10
	29	46	1253.634	7.290289	-20.10339	1	21.38445	-70.06734	-1.705837E-006	0.0073343	10
	30	48	1000.702	8.992362	-24.16445	1	25.78339	-69.58816	-1.201908E-006	0.0075641	10
	31	49	790.0281	11.3112	-29.18629	1	31.30148	-68.81608	-1.06757E-006	0.0076124	10
	32	50	628.811	14.21098	-34.86084	1	37.64611	-67.82179	-1.692626E-006	0.0069095	10
	33	51	502.2321	17.85674	-41.28295	1	44.97938	-66.60934	-1.717119E-006	0.0066614	10
	34	52	400.1524	22.55975	-48.63142	1	53.6093	-65.11377	-1.024903E-006	0.0063553	10
	35	54	315.5048	28.82157	-57.26803	1	64.1117	-63.28503	-1.71028E-006	0.0060124	10
	36	55	252.0161	35.79393	-65.28851	1	74.45667	-61.26658	1.62035E-006	0.01515	9
	37	56	200.3205	45.53749	-75.71069	1	88.35028	-58.97448	1.536994E-006	0.0136407	9
	38	57	158.0056	57.33432	-85.94368	1	103.3128	-56.29215	1.673092E-006	0.0156251	9
	39	58	125.558	70.8598	-95.6019	1	118.9993	-53.45428	1.688722E-006	0.0175922	9
	40	60	99.734	86.48791	-104.4235	1	135.5892	-50.36703	1.557508E-006	0.0181788	9
	41	61	79.44915	104.5629	-111.2965	1	152.7099	-46.78672	1.210428E-006	0.0272617	9
	42	62	62.91946	123.5713	-116.8907	1	170.0979	-43.4086	1.369305E-006	0.0284979	9
	43	63	49.86702	143.2563	-119.915	1	186.8207	-39.93155	1.325687E-006	0.030194	9
	44	65	38.42213	165.2077	-120.5517	1	204.5147	-36.11814	1.334482E-006	0.0321898	9
	45	66	31.25	182.1549	-119.415	1	217.8081	-33.24759	1.428576E-006	0.0342096	9
	46	67	24.93351	199.2332	-116.463	1	230.7759	-30.30869	1.329489E-006	0.036064	9
	47	68	20.03205	214.7676	-112.7846	1	242.5809	-27.70609	1.212814E-006	0.0387705	9
	48	70	15.625	230.7043	-108.0652	1	254.7598	-25.09908	1.430096E-006	0.0422928	9
	49	72	12.46675	243.6803	-103.9346	1	264.9198	-23.09923	1.316574E-006	0.0461109	9
	50	73	9.9734	255.3026	-100.4284	1	274.3452	-21.4732	1.317919E-006	0.0503234	9
	51	75	7.971939	265.6923	-97.5863	1	283.0468	-20.16781	1.318567E-006	0.0551943	9
	52	77	6.351626	275.3687	-95.9039	1	291.5913	-19.20193	1.325718E-006	0.0610289	9
	53	80	5.013369	284.7283	-95.7738	1	300.4044	-18.59134	1.38752E-006	0.0681146	9
	54	82	3.985969	293.1145	-97.5549	1	308.9224	-18.40856	1.317042E-006	0.0761386	9
	55	86	3.175813	301.071	-101.4255	1	317.6962	-18.61776	1.325014E-006	0.0856315	9
	56	89	2.516103	308.8899	-107.4921	1	327.0589	-19.18764	1.176246E-006	0.098437	9
	57	92	1.99553	312.5449	-115.9802	1	333.3702	-20.35905	1.182585E-006	0.115194	9
	58	96	1.587906	321.4575	-129.6422	1	346.6151	-21.96398	1.183158E-006	0.1273446	9
	59	102	1.258052	329.6596	-147.5797	1	361.1859	-24.11677	1.183016E-006	0.1433978	9
	60	109	0.997765	337.7202	-170.1323	1	378.1533	-26.73746	1.178612E-006	0.1649159	9
	61	116	0.7927448	344.6339	-197.9999	1	397.4626	-29.87833	1.174215E-006	0.1876415	9
	62	123	0.6290258	351.7352	-232.2757	1	421.5088	-33.43961	1.170049E-006	0.2062419	9
	63	132	0.4988825	358.4627	-272.775	1	450.4461	-37.2696	1.166962E-006	0.2144173	9
	64	143	0.3985969	364.3336	-318.9235	1	484.2016	-41.19764	1.165022E-006	0.2087873	9
	65	157	0.316723	371.0453	-374.6523	1	527.2941	-45.27715	1.16202E-006	0.1935076	9
	66	174	0.2514753	380.0135	-440.7096	1	581.9237	-49.22958	1.159752E-006	0.1676377	9
	67	195	0.1999787	392.2822	-515.8726	1	648.0817	-52.74975	1.164051E-006	0.1322779	9
	68	221	0.1587906	410.0354	-594.6113	1	722.2822	-55.41041	1.154669E-006	0.105858	9
	69	246	0.1260081	431.948	-660.4733	1	789.1793	-56.8154	1.147137E-006	0.1464394	9
	70	276	0.1001603	469.3841	-716.9639	1	856.9473	-56.78791	1.126005E-006	0.1849496	9
