EXPLAIN
TAG	GALVEIS
TITLE	LABEL	Galvanostatic EIS	Test &Identifier
DATE	LABEL	10-7-2017	Date
TIME	LABEL	14:51:44	Time
NOTES	NOTES	1	&Notes...
	0.9mg
PSTAT	PSTAT	IFC5000-01520	Potentiostat
IDCREQ	QUANT	0.00000E+000	DC &Current (A)
FREQINIT	QUANT	1.00000E+006	Initial Fre&q. (Hz)
FREQFINAL	QUANT	1.00000E-001	Final Fre&q. (Hz)
PTSPERDEC	QUANT	1.00000E+001	Points/&decade
IACREQ	QUANT	1.00000E-003	AC &Current (A rms)
AREA	QUANT	1.00000E+000	&Area (cm^2)
CONDIT	TWOPARAM	F	1.50000E+001	0.00000E+000	Conditionin&g	Time(s)	E(V)
DELAY	TWOPARAM	F	1.00000E+002	0.00000E+000	Init. De&lay	Time(s)	Stab.(mV/s)
SPEED	SELECTOR	1	&Optimize for:
ZGUESS	QUANT	2.50000E+002	E&stimated Z (ohms)
OCVCURVE	TABLE	40
	Pt	T	Vf	Vm	Ach	Over
	#	s	V vs. Ref.	V	V	bits
	0	0.25	2.52186E-002	2.52186E-002	2.52438E-002	...........
	1	0.5	2.52170E-002	2.51349E-002	2.51670E-002	...........
	2	0.75	2.52070E-002	2.50456E-002	2.50769E-002	...........
	3	1	2.51780E-002	2.49559E-002	2.49858E-002	...........
	4	1.25	2.51247E-002	2.48822E-002	2.49082E-002	...........
	5	1.5	2.50526E-002	2.48023E-002	2.48361E-002	...........
	6	1.75	2.49716E-002	2.47130E-002	2.47482E-002	...........
	7	2	2.48884E-002	2.46237E-002	2.46589E-002	...........
	8	2.25	2.48043E-002	2.45438E-002	2.45513E-002	...........
	9	2.5	2.47193E-002	2.44608E-002	2.44527E-002	...........
	10	2.75	2.46343E-002	2.43733E-002	2.43390E-002	...........
	11	3	2.45498E-002	2.42902E-002	2.42502E-002	...........
	12	3.25	2.44653E-002	2.41995E-002	2.41649E-002	...........
	13	3.5	2.43803E-002	2.41120E-002	2.40825E-002	...........
	14	3.75	2.42942E-002	2.40295E-002	2.40075E-002	...........
	15	4	2.42077E-002	2.39506E-002	2.39109E-002	...........
	16	4.25	2.41222E-002	2.38772E-002	2.38433E-002	...........
	17	4.5	2.40393E-002	2.37938E-002	2.37634E-002	...........
	18	4.75	2.39586E-002	2.37061E-002	2.36870E-002	...........
	19	5	2.38785E-002	2.36223E-002	2.35883E-002	...........
	20	5.25	2.37970E-002	2.35400E-002	2.35122E-002	...........
	21	5.5	2.37138E-002	2.34546E-002	2.34321E-002	...........
	22	5.75	2.36299E-002	2.33747E-002	2.33512E-002	...........
	23	6	2.35461E-002	2.32879E-002	2.32630E-002	...........
	24	6.25	2.34626E-002	2.32069E-002	2.31855E-002	...........
	25	6.5	2.33793E-002	2.31268E-002	2.31167E-002	...........
	26	6.75	2.32964E-002	2.30428E-002	2.30278E-002	...........
	27	7	2.32140E-002	2.29659E-002	2.29373E-002	...........
	28	7.25	2.31324E-002	2.28876E-002	2.28686E-002	...........
	29	7.5	2.30518E-002	2.28096E-002	2.27605E-002	...........
	30	7.75	2.29723E-002	2.27294E-002	2.27041E-002	...........
	31	8	2.28934E-002	2.26496E-002	2.26194E-002	...........
	32	8.25	2.28145E-002	2.25673E-002	2.25436E-002	...........
	33	8.5	2.27350E-002	2.24847E-002	2.24665E-002	...........
	34	8.75	2.26546E-002	2.24009E-002	2.23686E-002	...........
	35	9	2.25730E-002	2.23161E-002	2.22951E-002	...........
	36	9.25	2.24904E-002	2.22346E-002	2.22167E-002	...........
	37	9.5	2.24074E-002	2.21628E-002	2.21311E-002	...........
	38	9.75	2.23253E-002	2.20833E-002	2.20631E-002	...........
	39	10	2.22452E-002	2.20071E-002	2.19951E-002	...........
EOC	QUANT	0.0222452	Open Circuit (V)
PSTATMODEL	IQUANT	53	Pstat Model
PSTATSECTION	LABEL	IFC5000-01520	Pstat Section
PSTATSERIALNO	LABEL	01520	Pstat Serial Number
CTRLMODE	IQUANT	0	Control Mode
ELECTROMETER	IQUANT	0	RE=0 or CS=1
IESTAB	IQUANT	0	I/E Stability
CASPEED	IQUANT	4	Control Amp Speed
CONVENTION	IQUANT	1	Current Convention
ICHRANGE	IQUANT	2	Ich Range
ICHRANGEMODE	TOGGLE	F	Ich Auto Range
ICHOFFSETENABLE	TOGGLE	T	Ich Offset Enable
ICHOFFSET	QUANT	0	Ich Offset (V)
ICHFILTER	IQUANT	4	Ich Filter
VCHRANGE	IQUANT	2	Vch Range
VCHRANGEMODE	TOGGLE	F	Vch Auto Range
VCHOFFSETENABLE	TOGGLE	T	Vch Offset Enable
VCHOFFSET	QUANT	0	Vch Offset (V)
VCHFILTER	IQUANT	4	Vch Filter
IERANGELOWERLIMIT	IQUANT	7	I/E Range Lower Limit
IERANGEMODE	TOGGLE	F	I/E AutoRange
IERANGE	IQUANT	10	I/E Range
ACHSELECT	IQUANT	1	Ach Select
ACHRANGE	IQUANT	2	Ach Range
ACHOFFSETENABLE	TOGGLE	F	Ach Offset Enable
ACHOFFSET	QUANT	0	Ach Offset (V)
ACHFILTER	IQUANT	1	Ach Filter
CABLEID	IQUANT	14	Cable ID
DCCALDATE	LABEL	5-7-2017	DC Calibration Date
ACCALDATE	LABEL	12/3/2015	AC Calibration Date
FRAMEWORKVERSION	QUANT	7.01	Framework Version
INSTRUMENTVERSION	LABEL	4.00	Instrument Version
ZCURVE	TABLE
	Pt	Time	Freq	Zreal	Zimag	Zsig	Zmod	Zphz	Idc	Vdc	IERange
	#	s	Hz	ohm	ohm	V	ohm	°	A	V	#
	0	4	1000020	0.7720811	0.0509296	1	0.7737591	3.773994	9.006602E-006	0.6228391	9
	1	6	794355.5	0.7094449	-0.1158601	1	0.7188432	-9.275144	-3.276074E-006	0.3978699	9
	2	8	630996.1	0.7988087	0.1475694	1	0.8123251	10.46664	-1.279964E-005	-0.1412842	9
	3	10	501269.5	0.8826757	-0.1330606	1	0.8926486	-8.572614	-1.890615E-005	-0.0226157	9
	4	12	398144.5	0.777126	-0.090487	1	0.7823763	-6.641496	-2.268202E-005	0.011573	9
	5	14	316230.5	0.904009	-0.158472	1	0.9177939	-9.94287	-2.361906E-005	-0.0687124	9
	6	16	251191.4	0.9379862	-0.2230637	1	0.964145	-13.3771	-2.135772E-005	-0.0888011	9
	7	17	199628.9	0.980224	-0.2579666	1	1.0136	-14.74427	-1.283084E-005	-0.0966837	9
	8	19	158496.1	1.015892	-0.2815855	1	1.054195	-15.49234	-2.382733E-006	-0.112333	9
	9	21	125918	1.022286	-0.294964	1	1.063989	-16.09464	1.698694E-005	-0.206078	9
	10	23	100019.5	1.05406	-0.2716588	1	1.088504	-14.45211	-1.342837E-005	-0.7345243	9
	11	25	79511.72	1.145707	-0.3708761	1	1.20424	-17.93725	4.230806E-006	-0.4384467	9
	12	26	63105.47	1.20123	-0.3925137	1	1.263733	-18.09531	-2.995116E-006	-0.3598985	11
	13	28	50214.84	1.262455	-0.4685689	1	1.346606	-20.36276	8.852206E-006	-0.1630424	10
	14	30	39902.34	1.286894	-0.5042216	1	1.382149	-21.39589	-5.114169E-006	-0.1536601	11
	15	31	31699.22	1.344996	-0.5758026	1	1.463066	-23.17612	-3.571476E-006	-0.1604181	11
	16	33	25136.72	1.403886	-0.6559179	1	1.549556	-25.04274	-5.437523E-006	-0.1445188	11
	17	34	19980.47	1.447469	-0.7538954	1	1.63203	-27.51217	-4.524089E-006	-0.1297875	11
	18	35	15878.91	1.496436	-0.8766885	1	1.734331	-30.36395	-4.642808E-006	-0.1181325	11
	19	37	12597.66	1.552896	-1.026812	1	1.861674	-33.47364	-4.550146E-006	-0.117705	11
	20	38	10019.53	1.615197	-1.210903	1	2.018699	-36.85866	-4.679611E-006	-0.1169396	11
	21	39	7928.241	1.686024	-1.450556	1	2.224138	-40.70676	-8.613844E-006	-0.1160411	11
	22	40	6307.871	1.774605	-1.736084	1	2.482581	-44.37135	-1.035133E-005	-0.1126432	11
	23	42	5034.722	1.879918	-2.071521	1	2.797372	-47.77607	-5.860617E-006	-0.1204272	11
	24	43	3993.056	2.004247	-2.475844	1	3.185406	-51.00911	-6.146812E-006	-0.1310726	11
	25	44	3144.055	2.164119	-3.007166	1	3.704924	-54.25917	-6.393315E-006	-0.1282297	11
	26	46	2519.531	2.343397	-3.586298	1	4.284045	-56.83817	-5.895579E-006	-0.1327003	11
	27	47	2000.762	2.567188	-4.338225	1	5.040898	-59.38465	-6.127215E-006	-0.1255353	11
	28	48	1580.669	2.843456	-5.250624	1	5.971122	-61.5624	-6.650633E-006	-0.1206057	11
	29	49	1253.634	3.168081	-6.335268	1	7.083244	-63.43172	-6.708275E-006	-0.118208	11
	30	51	1000.702	3.547533	-7.655316	1	8.437349	-65.13663	-8.073787E-007	-0.1003214	10
	31	52	790.0281	3.977723	-9.266568	1	10.08422	-66.76832	-8.318307E-007	-0.0987538	10
	32	53	628.811	4.458861	-11.16407	1	12.02156	-68.22853	-1.416778E-006	-0.0944562	10
	33	54	502.2321	4.980657	-13.45223	1	14.34466	-69.68304	-1.333032E-006	-0.0909751	10
	34	56	400.1524	5.55279	-16.25798	1	17.18008	-71.14278	-6.698324E-007	-0.0899579	10
	35	57	315.5048	6.250586	-19.89927	1	20.85787	-72.5619	-1.309221E-006	-0.0858472	10
	36	58	252.0161	6.992707	-24.1538	1	25.14566	-73.85387	-1.277273E-006	-0.0857944	10
	37	59	200.3205	7.864572	-29.53271	1	30.56194	-75.08818	-8.908884E-007	-0.0845784	10
	38	60	158.0056	8.974005	-36.47228	1	37.56009	-76.17696	-1.279227E-006	-0.0788624	10
	39	62	125.558	10.28554	-44.67574	1	45.84445	-77.0349	-6.137465E-007	-0.0825129	10
	40	63	99.734	11.96998	-54.74911	1	56.04235	-77.6673	-9.231771E-007	-0.0853968	10
	41	64	79.44915	15.38493	-67.45427	1	69.18652	-77.15179	-1.134796E-006	-0.0185673	10
	42	65	62.91946	18.46521	-82.71854	1	84.75447	-77.41621	2.095384E-006	-0.0050818	9
	43	66	49.86702	22.65659	-100.7507	1	103.2667	-77.32628	2.099608E-006	0.018935	9
	44	68	38.42213	28.63387	-124.969	1	128.2074	-77.0947	2.117844E-006	0.0356888	9
	45	69	31.25	34.6305	-147.3491	1	151.3639	-76.77418	2.21195E-006	0.0481896	9
	46	70	24.93351	43.43927	-174.7839	1	180.101	-76.04298	2.115147E-006	0.0661591	9
	47	72	20.03205	52.44048	-205.7953	1	212.3717	-75.70421	2.022125E-006	0.0689045	9
	48	73	15.625	64.86681	-245.9602	1	254.37	-75.22585	2.198122E-006	0.0645985	9
	49	75	12.46675	80.0534	-285.4706	1	296.4827	-74.33512	2.076121E-006	0.0711746	9
	50	76	9.9734	98.4038	-327.6782	1	342.1349	-73.28466	2.076628E-006	0.0777264	9
	51	78	7.971939	120.7891	-372.792	1	391.8723	-72.04706	2.064003E-006	0.0836925	9
	52	80	6.351626	148.4266	-420.2366	1	445.6784	-70.5469	2.066925E-006	0.0888237	9
	53	83	5.013369	182.4129	-469.4547	1	503.6489	-68.76569	2.136266E-006	0.0955272	9
	54	85	3.985969	219.3556	-515.1819	1	559.9368	-66.93653	2.031556E-006	0.1046866	9
	55	88	3.175813	259.1623	-556.9714	1	614.3145	-65.04715	2.027737E-006	0.1147549	9
	56	92	2.516103	300.8087	-593.6782	1	665.5372	-63.12928	1.924597E-006	0.122966	9
	57	96	1.99553	337.5046	-614.2042	1	700.8253	-61.21125	1.916949E-006	0.1276408	9
	58	102	1.587906	383.4519	-650.8314	1	755.3919	-59.49458	1.91099E-006	0.1224834	9
	59	108	1.258052	427.4358	-679.8442	1	803.0501	-57.84136	1.900465E-006	0.1171261	9
	60	115	0.997765	473.0383	-702.1529	1	846.6309	-56.03197	1.896371E-006	0.1224628	9
	61	121	0.7927448	512.1668	-721.7216	1	884.9841	-54.63874	1.888286E-006	0.1156799	9
	62	129	0.6290258	551.6296	-738.4525	1	921.7414	-53.23999	1.87342E-006	0.110209	9
	63	138	0.4988825	591.2065	-753.0391	1	957.389	-51.86475	1.853955E-006	0.105215	9
	64	149	0.3985969	627.9572	-767.5928	1	991.73	-50.71387	1.817852E-006	0.1025286	9
	65	163	0.316723	662.1804	-783.5997	1	1025.92	-49.80054	1.82874E-006	0.0985194	9
	66	179	0.2514753	690.9197	-802.8311	1	1059.202	-49.28458	1.788442E-006	0.0889932	9
	67	200	0.1999787	717.7338	-823.8256	1	1092.625	-48.93695	1.775379E-006	0.0783243	9
	68	226	0.1587906	744.5036	-846.9189	1	1127.633	-48.68217	1.730429E-006	0.0680317	9
	69	258	0.1260081	788.0583	-862.8658	1	1168.578	-47.59444	1.710138E-006	0.0942144	9
	70	296	0.1001603	840.9776	-865.8128	1	1207.011	-45.83364	1.700649E-006	0.1342356	9
