EXPLAIN
TAG	GALVEIS
TITLE	LABEL	Galvanostatic EIS	Test &Identifier
DATE	LABEL	3-7-2017	Date
TIME	LABEL	14:29:15	Time
NOTES	NOTES	1	&Notes...
	0.6mg
PSTAT	PSTAT	IFC5000-01520	Potentiostat
IDCREQ	QUANT	0.00000E+000	DC &Current (A)
FREQINIT	QUANT	1.00000E+006	Initial Fre&q. (Hz)
FREQFINAL	QUANT	1.00000E-001	Final Fre&q. (Hz)
PTSPERDEC	QUANT	1.00000E+001	Points/&decade
IACREQ	QUANT	1.00000E-003	AC &Current (A rms)
AREA	QUANT	1.00000E+000	&Area (cm^2)
CONDIT	TWOPARAM	F	1.50000E+001	0.00000E+000	Conditionin&g	Time(s)	E(V)
DELAY	TWOPARAM	F	1.00000E+002	0.00000E+000	Init. De&lay	Time(s)	Stab.(mV/s)
SPEED	SELECTOR	1	&Optimize for:
ZGUESS	QUANT	2.50000E+002	E&stimated Z (ohms)
OCVCURVE	TABLE	40
	Pt	T	Vf	Vm	Ach	Over
	#	s	V vs. Ref.	V	V	bits
	0	0.25	4.24685E-001	4.24685E-001	4.24237E-001	...........
	1	0.5	4.24681E-001	4.24483E-001	4.24037E-001	...........
	2	0.75	4.24657E-001	4.24274E-001	4.23837E-001	...........
	3	1	4.24588E-001	4.24068E-001	4.23625E-001	...........
	4	1.25	4.24461E-001	4.23858E-001	4.23430E-001	...........
	5	1.5	4.24288E-001	4.23661E-001	4.23215E-001	...........
	6	1.75	4.24090E-001	4.23455E-001	4.23000E-001	...........
	7	2	4.23883E-001	4.23249E-001	4.22796E-001	...........
	8	2.25	4.23676E-001	4.23045E-001	4.22607E-001	...........
	9	2.5	4.23471E-001	4.22839E-001	4.22409E-001	...........
	10	2.75	4.23266E-001	4.22643E-001	4.22205E-001	...........
	11	3	4.23062E-001	4.22445E-001	4.22002E-001	...........
	12	3.25	4.22859E-001	4.22233E-001	4.21815E-001	...........
	13	3.5	4.22657E-001	4.22038E-001	4.21587E-001	...........
	14	3.75	4.22456E-001	4.21837E-001	4.21385E-001	...........
	15	4	4.22254E-001	4.21637E-001	4.21171E-001	...........
	16	4.25	4.22053E-001	4.21436E-001	4.20953E-001	...........
	17	4.5	4.21852E-001	4.21236E-001	4.20769E-001	...........
	18	4.75	4.21652E-001	4.21039E-001	4.20569E-001	...........
	19	5	4.21453E-001	4.20849E-001	4.20375E-001	...........
	20	5.25	4.21254E-001	4.20650E-001	4.20181E-001	...........
	21	5.5	4.21057E-001	4.20455E-001	4.19975E-001	...........
	22	5.75	4.20861E-001	4.20257E-001	4.19787E-001	...........
	23	6	4.20666E-001	4.20063E-001	4.19600E-001	...........
	24	6.25	4.20470E-001	4.19870E-001	4.19398E-001	...........
	25	6.5	4.20274E-001	4.19672E-001	4.19199E-001	...........
	26	6.75	4.20079E-001	4.19480E-001	4.19016E-001	...........
	27	7	4.19884E-001	4.19284E-001	4.18818E-001	...........
	28	7.25	4.19689E-001	4.19089E-001	4.18628E-001	...........
	29	7.5	4.19494E-001	4.18895E-001	4.18449E-001	...........
	30	7.75	4.19299E-001	4.18706E-001	4.18252E-001	...........
	31	8	4.19105E-001	4.18522E-001	4.18063E-001	...........
	32	8.25	4.18913E-001	4.18325E-001	4.17857E-001	...........
	33	8.5	4.18722E-001	4.18134E-001	4.17660E-001	...........
	34	8.75	4.18532E-001	4.17949E-001	4.17482E-001	...........
	35	9	4.18342E-001	4.17761E-001	4.17298E-001	...........
	36	9.25	4.18152E-001	4.17571E-001	4.17111E-001	...........
	37	9.5	4.17963E-001	4.17380E-001	4.16923E-001	...........
	38	9.75	4.17774E-001	4.17191E-001	4.16750E-001	...........
	39	10	4.17585E-001	4.17001E-001	4.16552E-001	...........
EOC	QUANT	0.4175852	Open Circuit (V)
PSTATMODEL	IQUANT	53	Pstat Model
PSTATSECTION	LABEL	IFC5000-01520	Pstat Section
PSTATSERIALNO	LABEL	01520	Pstat Serial Number
CTRLMODE	IQUANT	0	Control Mode
ELECTROMETER	IQUANT	0	RE=0 or CS=1
IESTAB	IQUANT	0	I/E Stability
CASPEED	IQUANT	4	Control Amp Speed
CONVENTION	IQUANT	1	Current Convention
ICHRANGE	IQUANT	2	Ich Range
ICHRANGEMODE	TOGGLE	F	Ich Auto Range
ICHOFFSETENABLE	TOGGLE	T	Ich Offset Enable
ICHOFFSET	QUANT	0	Ich Offset (V)
ICHFILTER	IQUANT	4	Ich Filter
VCHRANGE	IQUANT	2	Vch Range
VCHRANGEMODE	TOGGLE	F	Vch Auto Range
VCHOFFSETENABLE	TOGGLE	T	Vch Offset Enable
VCHOFFSET	QUANT	0	Vch Offset (V)
VCHFILTER	IQUANT	4	Vch Filter
IERANGELOWERLIMIT	IQUANT	7	I/E Range Lower Limit
IERANGEMODE	TOGGLE	F	I/E AutoRange
IERANGE	IQUANT	10	I/E Range
ACHSELECT	IQUANT	1	Ach Select
ACHRANGE	IQUANT	2	Ach Range
ACHOFFSETENABLE	TOGGLE	F	Ach Offset Enable
ACHOFFSET	QUANT	0	Ach Offset (V)
ACHFILTER	IQUANT	1	Ach Filter
CABLEID	IQUANT	14	Cable ID
DCCALDATE	LABEL	20-10-2016	DC Calibration Date
ACCALDATE	LABEL	12/3/2015	AC Calibration Date
FRAMEWORKVERSION	QUANT	7.01	Framework Version
INSTRUMENTVERSION	LABEL	4.00	Instrument Version
ZCURVE	TABLE
	Pt	Time	Freq	Zreal	Zimag	Zsig	Zmod	Zphz	Idc	Vdc	IERange
	#	s	Hz	ohm	ohm	V	ohm	°	A	V	#
	0	4	1000020	1.104492	-0.0595212	1	1.106094	-3.084694	3.248834E-005	0.5441743	11
	1	8	794355.5	1.118358	-0.0898183	1	1.121959	-4.59172	3.68046E-005	0.5406392	11
	2	9	630996.1	1.133494	-0.1195871	1	1.139785	-6.022601	-0.0004176	0.5102564	10
	3	11	501269.5	1.135567	-0.1355656	1	1.143631	-6.807827	5.574394E-005	0.5501817	11
	4	13	398144.5	1.157133	-0.1693866	1	1.169466	-8.328074	7.476132E-005	0.5452186	11
	5	14	316230.5	1.176783	-0.2033762	1	1.194228	-9.80523	7.550904E-005	0.5428972	11
	6	15	251191.4	1.194853	-0.2438635	1	1.219484	-11.53536	7.438693E-005	0.540877	11
	7	17	199628.9	1.215769	-0.2887203	1	1.249581	-13.35911	7.153804E-005	0.5392072	11
	8	18	158496.1	1.24049	-0.3391878	1	1.286027	-15.29261	6.502413E-005	0.5366504	11
	9	19	125918	1.267507	-0.4009827	1	1.329422	-17.55504	6.323006E-005	0.5347948	11
	10	20	100019.5	1.299208	-0.481036	1	1.385402	-20.31723	-2.086112E-006	0.5336368	11
	11	22	79511.72	1.338522	-0.5732049	1	1.456092	-23.18241	-3.687177E-006	0.5320342	11
	12	23	63105.47	1.381028	-0.6850487	1	1.5416	-26.38336	-5.880341E-006	0.5305031	11
	13	24	50214.84	1.430255	-0.8205104	1	1.648899	-29.84208	-1.725359E-006	0.529408	11
	14	26	39902.34	1.4942	-0.978845	1	1.786273	-33.22867	-1.993216E-006	0.5267147	11
	15	27	31699.22	1.568998	-1.17469	1	1.960013	-36.82175	-2.211974E-006	0.5240737	11
	16	28	25136.72	1.669654	-1.410127	1	2.185452	-40.18318	-3.074511E-006	0.5217292	11
	17	29	19980.47	1.78742	-1.688287	1	2.458696	-43.36626	-3.660306E-006	0.5195307	11
	18	31	15878.91	1.936	-2.018743	1	2.797038	-46.19859	-4.807269E-006	0.5174174	11
	19	32	12597.66	2.130292	-2.4102	1	3.216707	-48.52765	-4.717549E-006	0.5151606	11
	20	33	10019.53	2.368256	-2.864154	1	3.716452	-50.414	-4.92828E-006	0.5131599	11
	21	35	7928.241	2.690429	-3.403462	1	4.338429	-51.67371	-3.494785E-007	0.5108715	11
	22	36	6307.871	3.080112	-4.007091	1	5.054094	-52.45177	1.11403E-007	0.5088877	11
	23	37	5034.722	3.558904	-4.678147	1	5.877997	-52.73791	1.079735E-006	0.5069841	11
	24	38	3993.056	4.175346	-5.449007	1	6.864779	-52.53856	6.553376E-007	0.5047498	11
	25	39	3144.055	4.93248	-6.274172	1	7.980889	-51.82712	-1.681577E-006	0.5036693	10
	26	41	2519.531	5.853951	-7.164826	1	9.252214	-50.7498	-8.000927E-007	0.5021878	10
	27	42	2000.762	6.978464	-8.098194	1	10.69017	-49.24751	-8.700295E-007	0.5005615	10
	28	43	1580.669	8.341588	-9.051319	1	12.30888	-47.3367	-8.719809E-007	0.4990051	10
	29	45	1253.634	9.90753	-9.94537	1	14.03815	-45.1092	-9.61654E-007	0.4974972	10
	30	46	1000.702	11.63315	-10.72627	1	15.82349	-42.67742	-2.966624E-007	0.4960653	10
	31	47	790.0281	13.6306	-11.40105	1	17.77012	-39.91014	-4.427371E-007	0.494684	10
	32	48	628.811	15.69874	-11.87666	1	19.68516	-37.10881	-8.401977E-007	0.4933403	10
	33	49	502.2321	17.81738	-12.14668	1	21.56388	-34.28351	-9.082491E-007	0.4920498	10
	34	50	400.1524	19.97888	-12.22392	1	23.42178	-31.46006	-2.766769E-007	0.4907007	10
	35	52	315.5048	22.20784	-12.10739	1	25.29381	-28.59858	-9.206314E-007	0.4893832	10
	36	53	252.0161	24.24123	-11.82776	1	26.97282	-26.00863	-8.224915E-007	0.4880547	10
	37	54	200.3205	26.21223	-11.4081	1	28.58716	-23.51966	-5.622968E-007	0.4867471	10
	38	55	158.0056	28.10887	-10.87014	1	30.13749	-21.14226	-8.616238E-007	0.4853902	10
	39	57	125.558	29.79823	-10.27694	1	31.52063	-19.02851	-2.880876E-007	0.4842045	10
	40	58	99.734	31.33165	-9.6453	1	32.78268	-17.11074	-5.466462E-007	0.4828315	10
	41	59	79.44915	32.70662	-9.007912	1	33.9244	-15.39839	-1.056922E-006	0.4819591	10
	42	60	62.91946	33.96445	-8.379914	1	34.98295	-13.85956	-1.009313E-006	0.4808174	10
	43	61	49.86702	35.09168	-7.795575	1	35.94714	-12.5248	-1.104854E-006	0.4796192	10
	44	63	38.42213	36.19806	-7.215284	1	36.91016	-11.2729	-4.534002E-007	0.4784668	10
	45	64	31.25	36.9857	-6.826139	1	37.61034	-10.45693	-5.094744E-007	0.4773	10
	46	65	24.93351	37.78042	-6.474789	1	38.33123	-9.72485	-1.107581E-006	0.4762066	10
	47	66	20.03205	38.5155	-6.232795	1	39.01656	-9.192237	-7.365198E-007	0.4750808	10
	48	68	15.625	39.30075	-6.050505	1	39.76377	-8.752194	-5.324868E-007	0.4739686	10
	49	69	12.46675	40.00301	-5.976317	1	40.44697	-8.496956	-1.096715E-006	0.472807	10
	50	71	9.9734	40.66502	-5.986447	1	41.1033	-8.374571	-1.092138E-006	0.4716053	10
	51	72	7.971939	41.35133	-6.080232	1	41.79596	-8.364738	-1.104814E-006	0.4703791	10
	52	74	6.351626	42.02429	-6.263443	1	42.48849	-8.477156	-4.678049E-007	0.4691195	10
	53	76	5.013369	42.76189	-6.555282	1	43.26143	-8.715439	-5.825882E-007	0.4677938	10
	54	78	3.985969	43.47064	-6.949601	1	44.02265	-9.08295	-1.136671E-006	0.466429	10
	55	80	3.175813	44.20007	-7.466466	1	44.82626	-9.58813	-4.785761E-007	0.4649802	10
	56	83	2.516103	44.93264	-8.083618	1	45.65399	-10.19872	-8.364569E-007	0.4634971	10
	57	86	1.99553	45.70033	-8.946362	1	46.56777	-11.07623	-8.067141E-007	0.4620247	10
	58	90	1.587906	46.52124	-10.01985	1	47.58806	-12.15481	-7.96948E-007	0.4600855	10
	59	94	1.258052	47.33812	-11.39458	1	48.69019	-13.53399	-8.322866E-007	0.4580337	10
	60	99	0.997765	48.17896	-13.11463	1	49.93201	-15.22735	-8.506307E-007	0.4562558	10
	61	104	0.7927448	49.0371	-15.2582	1	51.35611	-17.28386	-8.254265E-007	0.4546264	10
	62	110	0.6290258	49.95777	-17.96625	1	53.09016	-19.78004	-8.335124E-007	0.4528366	10
	63	118	0.4988825	50.94477	-21.36376	1	55.24292	-22.75081	-8.20616E-007	0.4508356	10
	64	127	0.3985969	51.95992	-25.45846	1	57.86162	-26.10316	-8.471018E-007	0.4484394	10
	65	138	0.316723	53.10791	-30.68821	1	61.33691	-30.02131	-8.146856E-007	0.4458522	10
	66	152	0.2514753	54.22687	-37.23583	1	65.7804	-34.47612	1.11272E-006	0.4438074	9
	67	169	0.1999787	55.54074	-45.37481	1	71.71923	-39.2476	1.111526E-006	0.4418598	9
	68	190	0.1587906	57.07473	-55.59386	1	79.67561	-44.24697	1.104488E-006	0.4390265	9
	69	215	0.1260081	59.10523	-68.13895	1	90.20169	-49.06091	1.102449E-006	0.473951	9
	70	245	0.1001603	62.27174	-82.89795	1	103.6814	-53.08665	1.098274E-006	0.5288574	9
